date  Sun Sep 6 18:05:58 2020
base hex  timestamps absolute
internal events logged
Begin Triggerblock Sun Sep 6 18:05:58 2020
  0.000000 25  18FFF4F0x       Rx   d 8 64 00 00 00 00 00 01 00
  0.000028 25  18EFFFF0x       Rx   d 8 64 48 FF FF FF FD FF FF
  0.000035 4  0CFFFF7Ex       Rx   d 8 DF 00 04 00 42 00 14 C2
  0.001125 26  0CFFF38Cx       Rx   d 8 31 8D 24 FF FF FF FF F8
  0.001245 26  18FFF88Cx       Rx   d 8 79 FF FE 17 00 84 64 00
  0.001217 25  18FFF4F0x       Rx   d 8 66 FF FF FF FF FF FF FF
  0.001276 25  18EFFFF0x       Rx   d 8 F0 02 CC FF FF FF FF FF
  0.001876 24  18FFFEF2x       Rx   d 8 05 FC FF FF FF FF FF FF
  0.001876 20  18FEDF5Bx       Rx   d 8 82 80 25 FF FF FF FF FF
  0.001894 20  18EFFF5Bx       Rx   d 8 F1 2A FF FE FF FE FF FF
  0.001896 24  0CADFFF2x       Rx   d 8 FF FF 00 00 00 00 00 00
  0.001900 20  18FFFA5Bx       Rx   d 8 06 01 84 03 9E 01 F0 FF
  0.001900 24  18FFFBF2x       Rx   d 8 FB 0F 00 00 05 05 FF 42
  0.001914 24  18FFF4F2x       Rx   d 8 64 0A 51 50 00 4F 01 00
  0.002299 25  18EFFFF0x       Rx   d 8 F1 07 CC FC FF 00 FF CC
  0.002308 25  18FFFEF0x       Rx   d 8 FD FB FB FF FF FF FF FF
  0.002899 24  18EFFFF2x       Rx   d 8 F8 0B FF FF FF FF F0 FF
  0.002913 24  18FFF4F2x       Rx   d 8 5E 05 00 00 00 67 00 00
  0.003618 27  0CC62398x       Rx   d 8 7D 7D 00 FF FF FF FF FF
  0.003646 27  18FECA98x       Rx   d 8 00 FF 00 00 00 00 FF FF
  0.003866 20  1CE726EAx       Rx   d 8 A8 72 04 FF 95 5E 00 00
  0.004412 26  0CF00432x       Rx   d 8 FF FF FF 7A 25 FF FF FF
  0.004919 24  1CEFFA03x       Rx   d 8 AD 09 10 27 20 4E 20 4E
  0.004921 27  0CC49823x       Rx   d 8 00 FF F0 FF FF FF FF FF
  0.004946 24  1CEFFA03x       Rx   d 8 AD 0B 20 4E 20 4E 20 4E
  0.005276 25  18FFFBF0x       Rx   d 8 FB 04 94 5E FA FF FF FF
  0.005306 20  1CEFFA03x       Rx   d 8 AD 09 10 27 20 4E 20 4E
  0.005332 20  1CEFFA03x       Rx   d 8 AD 0B 20 4E 20 4E 20 4E
  0.006116 24  0CF00400x       Rx   d 8 F0 FF 87 80 25 FF F4 FF
  0.006219 22  18FFFDF4x       Rx   d 8 00 02 04 0A 00 02 19 26
  0.006253 22  0CEF41F4x       Rx   d 8 64 30 F0 FA 5C 04 FF FF
  0.006262 22  198C70F4x       Rx   d 8 64 80 00 03 00 03 00 03
  0.006267 22  0CEF43F4x       Rx   d 8 64 30 F0 FA 6B 0C FF FF
  0.007278 20  0CF0045Bx       Rx   d 8 FF FF 88 80 25 FF F4 FF
  0.007340 22  198C6CF4x       Rx   d 8 64 80 00 03 00 03 00 03
  0.007357 22  0CEF44F4x       Rx   d 8 64 30 F0 FA 00 00 FF FF
  0.007362 22  0CEF47F4x       Rx   d 8 64 30 F0 FA 00 00 FF FF
  0.007373 22  0CEF45F4x       Rx   d 8 64 30 F0 FA 00 00 FF FF
  0.008539 22  0CEF42F4x       Rx   d 8 64 30 F0 FA A8 05 FF FF
  0.009180 20  18FFFB26x       Rx   d 8 F9 01 00 00 00 FF FF FF
  0.010652 22  198BF46Cx       Rx   d 8 64 90 00 00 00 00 00 00
  0.010680 22  198C70F4x       Rx   d 8 64 81 00 03 FF FF FF FF
  0.010691 22  198BF46Cx       Rx   d 8 64 91 56 00 FF FF FF FF
  0.011790 20  0CF0035Bx       Rx   d 8 FF FF 0A FF FF FF FF FF
  0.011847 20  18FFFA5Bx       Rx   d 8 06 01 84 03 9D 01 F0 FF
  0.011847 24  18EFFFF2x       Rx   d 8 64 58 F0 F4 80 01 8D 24
  0.011858 20  1CE6EA26x       Rx   d 8 A8 72 04 00 95 5E 00 00
  0.011867 24  04EF0006x       Rx   d 8 64 15 14 F0 00 40 C0 12
  0.012580 26  1CE6EA26x       Rx   d 8 A8 72 04 00 95 5E 00 00
  0.014397 20  18FFFE31x       Rx   d 8 05 FC FF FF FF FF FF FF
  0.014516 20  1CE7267Fx       Rx   d 8 A0 99 04 01 FF FF FF FF
  0.014527 20  18FFFF31x       Rx   d 8 87 FF 00 FF FF FF FF FF
  0.014532 20  0CFFEC31x       Rx   d 8 FF FF FF FF FF FF FF 3F
  0.014528 26  18EFFF32x       Rx   d 8 F8 A0 00 00 F0 FF FF FF
  0.014534 30  18EFFF33x       Rx   d 8 F4 31 88 88 8F FF FF 88
  0.014559 30  0CFFFE33x       Rx   d 8 8E FF FF FF FF FF FF FF
  0.014951 24  08FEF103x       Rx   d 8 FF 00 00 CF FF FF FF FF
  0.014979 24  1CEFFA03x       Rx   d 8 AD 09 10 27 20 4E 20 4E
  0.014978 27  0CC49823x       Rx   d 8 00 FF F0 FF FF FF FF FF
  0.014988 24  1CEFFA03x       Rx   d 8 AD 0B 20 4E 20 4E 20 4E
  0.015599 20  18EFFF31x       Rx   d 8 F4 19 00 FF FF FF FF FF
  0.015622 20  18EFFF31x       Rx   d 8 F1 07 CC CC 00 00 00 00
  0.015628 20  18FFF831x       Rx   d 8 85 00 00 FF FF FF FF FC
  0.015633 20  0CFF18EBx       Rx   d 8 C0 22 00 05 40 07 05 50
  0.016039 24  0CEFFF00x       Rx   d 8 64 06 8C 7D 59 66 1D 00
  0.016062 24  0CF00300x       Rx   d 8 FF FE 0A FF FF FF 59 FF
  0.016067 24  0CF00400x       Rx   d 8 F0 FF 87 7C 25 FF F4 FF
  0.016072 24  18FEEF00x       Rx   d 8 0A FF FF 8B FF FF 05 FA
  0.016258 22  18FFFDF4x       Rx   d 8 00 02 04 0A 00 02 19 26
  0.016285 22  198C6CF4x       Rx   d 8 64 81 00 03 FF FF FF FF
  0.016700 20  18FFFE31x       Rx   d 8 FD FB FB FB FB FF FF FF
  0.016724 20  0CF61EEBx       Rx   d 8 FF 03 40 FF C3 FF F1 50
  0.016731 20  18EFFF31x       Rx   d 8 F2 0D FF FF FF FF FF FF
  0.016738 20  0CF61FEBx       Rx   d 8 FF 04 40 FF C3 FF F1 90
  0.017905 20  18EFFF5Bx       Rx   d 8 64 53 15 01 C0 01 04 FF
  0.017928 20  0CF620EBx       Rx   d 8 FF 01 80 FF C3 FF F1 30
  0.017935 20  18FEF65Bx       Rx   d 8 FF FE FF FF FE FF FF FF
  0.017940 20  0CF621EBx       Rx   d 8 FF 02 80 FF C3 FF F1 D0
  0.018244 24  18EF00FAx       Rx   d 8 53 E2 5B 05 04 FF FF FF
  0.018265 24  18FFF413x       Rx   d 8 5F A2 60 01 00 00 00 00
  0.019006 20  18FFFFEAx       Rx   d 8 16 FF 00 3B FF FF 02 00
  0.019030 20  0CF622EBx       Rx   d 8 FF 07 40 FF 00 00 F1 60
  0.019036 20  1C8BDAEBx       Rx   d 8 00 00 00 00 00 00 00 00
  0.019041 20  0CF623EBx       Rx   d 8 FF 01 40 FF 3F FF F1 70
  0.019549 24  18FFF413x       Rx   d 8 63 00 00 00 10 01 00 00
  0.019571 24  0CACFF13x       Rx   d 8 72 7D 30 20 00 00 00 00
  0.019577 24  18FFF8C5x       Rx   d 8 9B 00 7D 00 64 80 F0 FF
  0.019582 24  18EFFA00x       Rx   d 8 A5 E2 5B 05 FF FF FF FF
  0.020123 25  0CFFF3F0x       Rx   d 8 31 FF FF FF FF FF FF F8
  0.020152 20  18EFFFEAx       Rx   d 8 64 57 F2 F8 2A FF FF FF
  0.020185 20  0CF624EBx       Rx   d 8 FF 02 40 FF 3F FF F1 90
  0.020195 20  18FFF8EAx       Rx   d 8 9B FF FF FF FF FF FF FF
  0.020200 20  0CF625EBx       Rx   d 8 FF 05 40 FF 3F FF F1 50
  0.020748 24  1CFECAC5x       Rx   d 8 00 FF 00 00 00 00 FF FF
  0.021312 20  18EFFA00x       Rx   d 8 A5 E2 5B 05 FF FF FF FF
  0.021336 20  0CF626EBx       Rx   d 8 FF 06 40 FF 3F FF F1 B0
  0.021341 20  1C8BDAEBx       Rx   d 8 01 00 00 00 00 00 00 00
  0.021346 20  0CF627EBx       Rx   d 8 FF 03 80 FF 3F FF F1 10
  0.021852 24  18EFFFF2x       Rx   d 8 F8 20 F2 FF FF FF FF FF
  0.021873 24  18FFFBF2x       Rx   d 8 F9 01 00 00 00 FF FF FF
  0.021878 24  18EFFFF2x       Rx   d 8 64 53 FF FF FF FF 04 FF
  0.022412 20  18EFFF5Bx       Rx   d 8 F1 2A FF FE FF FE FF FF
  0.022432 20  0CF628EBx       Rx   d 8 FF 04 80 FF 3F FF F1 D0
  0.022438 20  18FFFA5Bx       Rx   d 8 06 01 84 03 9F 01 F0 FF
  0.022442 20  1CE67F26x       Rx   d 8 A0 99 04 01 00 FF FF FF
  0.023529 20  1CEFFA03x       Rx   d 8 AD 09 10 27 20 4E 20 4E
  0.023551 20  18FFFE26x       Rx   d 8 37 FF FF FF FF EE FF FF
  0.023556 26  1CE67F26x       Rx   d 8 A0 99 04 01 00 FF FF FF
  0.023569 20  0CFFFF7Fx       Rx   d 8 DF 00 C4 00 FF FF 14 C2
  0.023575 20  18FFF87Fx       Rx   d 8 D3 00 FC 42 00 FF FF FF
  0.023576 26  0CF00432x       Rx   d 8 FF FF FF 80 25 FF FF FF
  0.024718 20  18FFF426x       Rx   d 8 29 FF 00 FF FF FF FF FF
  0.024742 20  1CE7267Fx       Rx   d 8 A0 A3 04 01 FF FF FF FF
  0.024748 20  1CEFFA03x       Rx   d 8 AD 0B 20 4E 20 4E 20 4E
  0.024753 20  1CEFFA03x       Rx   d 8 AD 09 10 27 20 4E 20 4E
  0.024971 24  1CEFFA03x       Rx   d 8 AD 09 10 27 20 4E 20 4E
  0.024992 24  1CEFFA03x       Rx   d 8 AD 0B 20 4E 20 4E 20 4E
  0.025003 27  0CC49823x       Rx   d 8 00 FF F0 FF FF FF FF FF
  0.025821 20  1CEFFA03x       Rx   d 8 AD 0B 20 4E 20 4E 20 4E
  0.025845 20  1CFFFE17x       Rx   d 8 A7 50 14 00 80 25 00 00
  0.026062 24  0CF00400x       Rx   d 8 F0 FF 88 78 25 FF F4 FF
  0.026299 23  0CEF42F3x       Rx   d 8 64 30 F0 96 D5 07 FF FF
  0.026330 23  18A74DF3x       Rx   d 8 FF FF FF FF FF FF FF FF
  0.026336 23  0CEF47F3x       Rx   d 8 64 30 F0 FA 00 00 FF FF
  0.026340 23  0CEF43F3x       Rx   d 8 64 30 F0 FA 00 00 FF FF
  0.026601 11  0CEF42F3x       Rx   d 8 64 30 F0 96 D5 07 FF FF
  0.026640 11  0CEF47F3x       Rx   d 8 64 30 F0 FA 00 00 FF FF
  0.026646 11  0CEF43F3x       Rx   d 8 64 30 F0 FA 00 00 FF FF
  0.027426 20  08FEF15Bx       Rx   d 8 FF 00 00 CF FF FF FF FF
  0.027473 20  0CF0045Bx       Rx   d 8 FF FF 87 7C 25 FF F4 FF
  0.027472 23  0CEF45F3x       Rx   d 8 64 30 F0 FA 00 00 FF FF
  0.027479 20  18FEEF5Bx       Rx   d 8 0A FF FF 8B FF FF 05 FF
  0.027788 11  0CEF45F3x       Rx   d 8 64 30 F0 FA 00 00 FF FF
  0.029001 23  0CFFFEF1x       Rx   d 8 4F FF FF FF FF FF FF FF
  0.030808 22  08FEF1F4x       Rx   d 8 FF 00 00 FF FF FF FF FF
  0.030808 23  08FEF1F3x       Rx   d 8 FF 00 00 FF FF FF FF FF
  0.030839 23  18FFFEF3x       Rx   d 8 37 FF FF FF FF EF FF FF
  0.030858 22  18FFFEF4x       Rx   d 8 37 FF FF FF FF EF FF FF
  0.031837 20  0CACFF5Bx       Rx   d 8 72 7D 3C 3F C0 FF FF FF
  0.031977 24  04EF0006x       Rx   d 8 64 15 15 F0 00 40 C0 12
  0.031999 24  18FD7C06x       Rx   d 8 FF FF FF FF FF FF FF FF
  0.033038 20  1CE67F26x       Rx   d 8 A0 A3 04 01 00 FF FF FF
  0.033064 20  1CE7267Fx       Rx   d 8 A0 A2 04 00 FF FF FF FF
  0.033312 26  1CE67F26x       Rx   d 8 A0 A3 04 01 00 FF FF FF
  0.033341 26  08FEF132x       Rx   d 8 FF 00 00 CF FF FF FF FF
  0.034244 20  18EFFF31x       Rx   d 8 F8 20 F2 FF FF FF FF FF
  0.034273 30  08FEF133x       Rx   d 8 FF 00 00 FF FF FF FF FF
  0.034270 20  1CEFFA03x       Rx   d 8 AD 02 88 13 88 13 88 13
  0.034899 24  1CEFFA03x       Rx   d 8 AD 02 88 13 88 13 88 13
  0.034931 24  08EFFF03x       Rx   d 8 64 61 41 2F 1F 0F FF FF
  0.034926 27  0CC49823x       Rx   d 8 00 FF F0 FF FF FF FF FF
  0.034938 24  1CEFFA03x       Rx   d 8 AD 03 00 00 00 F9 8B 00
  0.034944 24  1CEFFA03x       Rx   d 8 AD 04 81 00 72 00 3B 02
  0.035184 25  08FEF1F0x       Rx   d 8 FF 00 00 FF FF FF FF FF
  0.035513 22  198BF46Cx       Rx   d 8 64 90 00 00 00 00 00 00
  0.035543 22  198BF46Cx       Rx   d 8 64 91 00 00 FF FF FF FF
  0.035549 22  198C70F4x       Rx   d 8 64 80 00 03 00 03 00 03
  0.035844 20  1CEFFA03x       Rx   d 8 AD 03 00 00 00 F9 8B 00
  0.035869 20  1C8BDAEBx       Rx   d 8 02 00 00 00 00 00 00 00
  0.035875 20  1CEFFA03x       Rx   d 8 AD 04 81 00 72 00 3B 02
  0.035880 20  1C8BDAEBx       Rx   d 8 03 00 00 00 00 00 00 00
  0.035985 24  0CEFFF00x       Rx   d 8 64 06 8F 7D 59 66 1D 00
  0.036004 24  0CF00300x       Rx   d 8 FF FE 0A FF FF FF 59 FF
  0.036009 24  0CF00400x       Rx   d 8 F0 FF 88 7C 25 FF F4 FF
  0.036014 24  18F02300x       Rx   d 8 00 00 F2 FF FF 02 FF FF
  0.036686 22  198C6CF4x       Rx   d 8 64 80 00 03 00 03 00 03
  0.036946 20  1C8BDAEBx       Rx   d 8 00 00 00 00 00 00 00 00
  0.036967 20  1C8BDAEBx       Rx   d 8 01 00 00 00 00 00 00 00
  0.036973 20  1CEFFA03x       Rx   d 8 AD 06 7E 0C CB 0C 99 A5
  0.036978 20  18FEF65Bx       Rx   d 8 FF FE FF FF FE FF FF FF
  0.037188 24  1CEFFA03x       Rx   d 8 AD 06 7E 0C CB 0C 99 A5
  0.037210 24  1CEFFA03x       Rx   d 8 AD 07 02 01 1A 00 CD 50
  0.037215 24  1CEFFA03x       Rx   d 8 AD 08 1E 09 91 04 10 27
  0.037220 24  1CEFFA03x       Rx   d 8 AD 09 10 27 20 4E 20 4E
  0.038150 20  1CEFFA03x       Rx   d 8 AD 07 02 01 1A 00 CD 50
  0.038174 20  1CEFFA03x       Rx   d 8 AD 08 1E 09 91 04 10 27
  0.038180 20  1CEFFA03x       Rx   d 8 AD 09 10 27 20 4E 20 4E
  0.038185 20  1CEFFA03x       Rx   d 8 AD 0A 20 4E 20 4E 20 4E
  0.038290 24  1CEFFA03x       Rx   d 8 AD 0A 20 4E 20 4E 20 4E
  0.038308 24  1CEFFA03x       Rx   d 8 AD 0B 20 4E 20 4E 20 4E
  0.038313 24  1CEFFA03x       Rx   d 8 AD 0D 00 00 3C 02 00 00
  0.038318 24  1CEFFA03x       Rx   d 8 AD 0E 00 00 66 00 81 00
  0.039254 20  0CFFF331x       Rx   d 8 31 8D 24 FF FF FF FF F8
  0.039278 20  1CEFFA03x       Rx   d 8 AD 0B 20 4E 20 4E 20 4E
  0.039284 20  1CEFFA03x       Rx   d 8 AD 0D 00 00 3C 02 00 00
  0.039289 20  1CEFFA03x       Rx   d 8 AD 0E 00 00 66 00 81 00
  0.039923 26  0CFF1BE5x       Rx   d 8 27 22 DF 00 D0 FA 00 00
  0.039952 26  0CFFF38Cx       Rx   d 8 31 8A 24 FF FF FF FF F8
  0.040354 20  18FF1B31x       Rx   d 8 27 22 DF 00 D0 FA 00 00
  0.040378 20  18EFFFEBx       Rx   d 8 F4 16 F0 FF FF FF FF FF
  0.040595 24  18FF1BF2x       Rx   d 8 27 22 DF 00 D0 FA 00 00
  0.040901 22  198C70F4x       Rx   d 8 64 81 00 03 FF FF FF FF
  0.040923 22  198C6CF4x       Rx   d 8 64 81 00 03 FF FF FF FF
  0.040933 23  10FFFF43x       Rx   d 8 F6 FF 00 00 F1 00 00 00
  0.041036 26  18FFF88Cx       Rx   d 8 79 FF FE 17 00 84 64 00
  0.041225 11  10FFFF43x       Rx   d 8 F6 FF 00 00 F1 00 00 00
  0.041860 20  18FFF45Bx       Rx   d 8 5F A2 60 01 00 00 00 00
  0.041885 20  0CFFEC5Bx       Rx   d 8 FF FF FF FF FF F0 FF FC
  0.041891 20  18FFFB5Bx       Rx   d 8 FB 0F 00 00 05 05 FF 42
  0.041896 20  18EFFF26x       Rx   d 8 09 FF FF FF FF 00 00 FF
  0.042962 20  18EFFF5Bx       Rx   d 8 64 57 2F FF FF 00 00 FF
  0.042987 20  1CE67F26x       Rx   d 8 A0 A2 04 00 00 FF FF FF
  0.042997 20  18EFFF5Bx       Rx   d 8 F1 2A FF FE FF FE FF FF
  0.043034 20  18EFFF5Bx       Rx   d 8 F8 21 04 00 00 00 00 00
  0.043536 26  1CE67F26x       Rx   d 8 A0 A2 04 00 00 FF FF FF
  0.043563 26  0CF00432x       Rx   d 8 FF FF FF 7C 25 FF FF FF
  0.044164 20  18FFF45Bx       Rx   d 8 63 00 00 00 10 01 00 00
  0.044190 20  1CE7267Fx       Rx   d 8 A8 3F 04 FF 42 00 00 00
  0.044305 22  10FFFF47x       Rx   d 8 F6 FF 00 00 F0 00 19 19
  0.044922 24  1CEFFA03x       Rx   d 8 AD 09 10 27 20 4E 20 4E
  0.044946 24  1CEFFA03x       Rx   d 8 AD 0B 20 4E 20 4E 20 4E
  0.044957 24  0CF00400x       Rx   d 8 F0 FF 88 7E 25 FF F4 FF
  0.044951 27  0CC49823x       Rx   d 8 00 FF F0 FF FF FF FF FF
  0.045265 20  1CEFFA03x       Rx   d 8 AD 09 10 27 20 4E 20 4E
  0.045289 20  1CEFFA03x       Rx   d 8 AD 0B 20 4E 20 4E 20 4E
  0.045537 23  10FFFF47x       Rx   d 8 F6 FF 00 00 F0 00 E5 07
  0.045743 29  09F80180x       Rx   d 8 FF FF FF 7F FF FF FF 7F
  0.045772 29  09F80280x       Rx   d 8 FF FC FF FF FF FF FF FF
  0.046109 24  18FEDF00x       Rx   d 8 82 80 25 FF FF FF FF 00
  0.046131 24  18EF00FAx       Rx   d 8 53 E3 5B 05 04 FF FF FF
  0.046367 20  18EFFFEBx       Rx   d 8 64 48 FF FF FF 0D 25 FF
  0.046389 20  18F0235Bx       Rx   d 8 00 00 00 00 00 00 00 00
  0.046931 29  09F11280x       Rx   d 8 AD EE 0B 00 00 9D 00 FD
  0.047671 20  0CF0045Bx       Rx   d 8 FF FF 88 7C 25 FF F4 FF
  0.047694 20  18EFFA26x       Rx   d 8 AD 3E 1E FF 02 01 05 05
  0.048649 26  18FFFE19x       Rx   d 8 05 FC FF FF FF FF FF FF
  0.048679 26  18FFFE19x       Rx   d 8 0B FF FF 03 F0 FF FF FF
  0.049044 23  18A7004Dx       Rx   d 8 00 00 00 00 00 00 00 00
  0.050319 24  18EFFA00x       Rx   d 8 A5 E3 5B 05 FF FF FF FF
  0.050679 20  18EFFA00x       Rx   d 8 A5 E3 5B 05 FF FF FF FF
  0.050702 20  0CFFFE17x       Rx   d 8 48 FF FF FF FF FF FF FF
  0.051551 23  10FFFF45x       Rx   d 8 F6 FF 00 00 F0 00 1B 19
  0.051892 20  18FFFA5Bx       Rx   d 8 06 01 84 03 9E 01 F0 FF
  0.051921 11  10FFFF45x       Rx   d 8 F6 FF 00 00 F0 00 1B 19
  0.052021 24  04EF0006x       Rx   d 8 64 15 16 F0 00 40 C0 12
  0.053288 20  1CE67F26x       Rx   d 8 A8 3F 04 00 42 00 00 00
  0.053557 26  1CE67F26x       Rx   d 8 A8 3F 04 00 42 00 00 00
  0.053858 23  10FFFF42x       Rx   d 8 F6 FF 00 00 F0 00 D7 07
  0.054154 11  10FFFF42x       Rx   d 8 F6 FF 00 00 F0 00 D7 07
  0.054225 22  10FFFF45x       Rx   d 8 F6 FF 00 00 F0 00 F8 05
  0.054788 20  1CE7267Fx       Rx   d 8 A8 2A 04 FF 09 04 00 00
  0.054829 20  1CEFFA03x       Rx   d 8 AD 09 10 27 20 4E 20 4E
  0.054828 27  0CC49823x       Rx   d 8 00 FF F0 FF FF FF FF FF
  0.054844 20  1CEFFA03x       Rx   d 8 AD 0B 20 4E 20 4E 20 4E
  0.054928 24  1CEFFA03x       Rx   d 8 AD 09 10 27 20 4E 20 4E
  0.054950 24  1CEFFA03x       Rx   d 8 AD 0B 20 4E 20 4E 20 4E
  0.055992 20  1C8BDAEBx       Rx   d 8 00 00 00 00 00 00 00 00
  0.056017 20  1C8BDAEBx       Rx   d 8 01 00 00 00 00 00 00 00
  0.056144 24  0CEFFF00x       Rx   d 8 64 06 8F 7D 59 66 1D 00
  0.056164 24  0CF00300x       Rx   d 8 FF FE 0A FF FF FF 59 FF
  0.056170 24  0CF00400x       Rx   d 8 F0 FF 88 7E 25 FF F4 FF
  0.056172 23  18FFFDF3x       Rx   d 8 00 03 02 01 0F 05 0A 02
  0.056179 24  18FEF200x       Rx   d 8 CD 00 FF FF FF FF FF FF
  0.057194 20  18EFFA26x       Rx   d 8 AD 42 00 00 00 00 00 00
  0.057219 20  18FEF65Bx       Rx   d 8 FF FE FF FF FE FF FF FF
  0.057340 22  10FFFF41x       Rx   d 8 F6 FF 00 00 F2 00 5C 04
  0.057433 24  18EFFFF2x       Rx   d 8 64 58 F0 F4 80 01 8D 24
  0.058536 22  10FFFF44x       Rx   d 8 F6 FF 00 00 F0 00 F8 05
  0.060042 25  0CFFF3F0x       Rx   d 8 31 FF FF FF FF FF FF F8
  0.060644 22  198BF46Cx       Rx   d 8 64 90 56 00 00 00 00 00
  0.060669 22  198BF46Cx       Rx   d 8 64 91 B4 00 FF FF FF FF
  0.060776 26  18FFFE8Cx       Rx   d 8 63 FF FF FD FF FF FF FF
  0.060805 26  18EFFF8Cx       Rx   d 8 F4 31 88 88 88 88 88 88
  0.060823 26  18EFFF4Fx       Rx   d 8 F4 19 00 FF FF FF FF FF
  0.060828 26  18FFFE8Cx       Rx   d 8 FD FB FB FB FB FF FF FF
  0.061808 20  0CF0035Bx       Rx   d 8 FF FF 0A FF FF FF FF FF
  0.061864 20  18EFFF5Bx       Rx   d 8 F1 2A FF FE FF FE FF FF
  0.061863 24  18EFFFF2x       Rx   d 8 F8 20 F2 FF FF FF FF FF
  0.061875 20  1CE67F26x       Rx   d 8 A8 2A 04 00 09 04 00 00
  0.061893 20  1CE7267Fx       Rx   d 8 A8 29 04 FF 49 04 00 00
  0.061944 26  1CFFF84Fx       Rx   d 8 85 00 00 FF FF FF FF FC
  0.061972 26  1CE67F26x       Rx   d 8 A8 2A 04 00 09 04 00 00
  0.064383 26  0CF00432x       Rx   d 8 FF FF FF 7C 25 FF FF FF
  0.064975 24  1CEFFA03x       Rx   d 8 AD 09 10 27 20 4E 20 4E
  0.064999 24  1CEFFA03x       Rx   d 8 AD 0B 20 4E 20 4E 20 4E
  0.065004 24  0CF00400x       Rx   d 8 F0 FF 88 7A 25 FF F4 FF
  0.065002 23  18A6004Dx       Rx   d 8 00 00 00 00 00 00 00 00
  0.065002 27  0CC49823x       Rx   d 8 00 FF F0 FF FF FF FF FF
  0.065314 20  1CEFFA03x       Rx   d 8 AD 09 10 27 20 4E 20 4E
  0.065339 20  1CEFFA03x       Rx   d 8 AD 0B 20 4E 20 4E 20 4E
  0.065346 20  18EFFFEBx       Rx   d 8 64 95 41 04 F3 FF FF FF
  0.066287 23  18FFFDF3x       Rx   d 8 00 03 03 01 0F 05 0A 02
  0.066314 23  18EFFFF3x       Rx   d 8 F8 0B FF FF FF FF F0 FF
  0.066457 22  198C70F4x       Rx   d 8 64 80 00 03 00 03 00 03
  0.066482 22  198C6CF4x       Rx   d 8 64 80 00 03 00 03 00 03
  0.066616 20  0CFF18EBx       Rx   d 8 C0 14 00 07 40 07 06 60
  0.066638 20  18EFFFEBx       Rx   d 8 F8 0B 00 00 93 FF F0 00
  0.066644 20  0CF61EEBx       Rx   d 8 FF 03 40 FF C3 FF F2 B0
  0.066649 20  0CF0045Bx       Rx   d 8 FF FF 88 7E 25 FF F4 FF
  0.066890 11  18EFFFF3x       Rx   d 8 F8 0B FF FF FF FF F0 FF
  0.067720 20  0CF61FEBx       Rx   d 8 FF 04 40 FF C3 FF F2 70
  0.067744 20  18FEF25Bx       Rx   d 8 CD 00 FF FF FF FF FF FF
  0.067751 20  0CF620EBx       Rx   d 8 FF 01 80 FF C3 FF F2 D0
  0.067770 20  0CF621EBx       Rx   d 8 FF 02 80 FF C3 FF F2 30
  0.068923 20  0CF622EBx       Rx   d 8 FF 07 40 FF 00 00 F2 80
  0.068949 20  0CF623EBx       Rx   d 8 FF 01 40 FF 3F FF F2 90
  0.068955 20  0CF624EBx       Rx   d 8 FF 02 40 FF 3F FF F2 70
  0.068960 20  0CF625EBx       Rx   d 8 FF 05 40 FF 3F FF F2 B0
  0.069464 22  10FFFF43x       Rx   d 8 F6 FF 00 00 F2 00 6B 0C
  0.070023 20  0CF626EBx       Rx   d 8 FF 06 40 FF 3F FF F2 50
  0.070050 20  0CF627EBx       Rx   d 8 FF 03 80 FF 3F FF F2 F0
  0.070056 20  0CF628EBx       Rx   d 8 FF 04 80 FF 3F FF F2 30
  0.070968 22  198C70F4x       Rx   d 8 64 81 00 03 FF FF FF FF
  0.070992 22  198C6CF4x       Rx   d 8 64 81 00 03 FF FF FF FF
  0.071299 26  18EFFF4Fx       Rx   d 8 F1 07 CC CC 00 00 00 00
  0.071328 26  18EFFF4Fx       Rx   d 8 F0 02 CC 00 30 F0 FF FF
  0.071828 20  18EFFF5Bx       Rx   d 8 F4 16 F0 FF FF FF FF FF
  0.071851 20  18FFFA5Bx       Rx   d 8 06 01 84 03 9D 01 F0 FF
  0.071970 24  04EF0006x       Rx   d 8 64 15 17 F0 00 40 C0 12
  0.071990 24  0CFFF606x       Rx   d 8 FF FF FF FF FF 00 00 FF
  0.073332 20  1CE67F26x       Rx   d 8 A8 29 04 00 49 04 00 00
  0.073364 20  18EFFF31x       Rx   d 8 F8 20 F2 FF FF FF FF FF
  0.073602 26  1CE67F26x       Rx   d 8 A8 29 04 00 49 04 00 00
  0.074534 20  1CE7267Fx       Rx   d 8 A8 38 04 FF 05 04 00 00
  0.074588 20  1CEFFA03x       Rx   d 8 AD 02 88 13 88 13 88 13
  0.074604 22  10FFFF42x       Rx   d 8 F6 FF 00 00 F2 00 A8 05
  0.074890 24  1CEFFA03x       Rx   d 8 AD 02 88 13 88 13 88 13
  0.074918 24  08EFFF03x       Rx   d 8 64 61 40 2F 1F 0F FF FF
  0.074910 27  0CC49823x       Rx   d 8 00 FF F0 FF FF FF FF FF
  0.074924 24  1CEFFA03x       Rx   d 8 AD 03 00 00 00 F9 8B 00
  0.074929 24  1CEFFA03x       Rx   d 8 AD 04 81 00 72 00 3B 02
  0.074973 23  18FF024Dx       Rx   d 8 00 00 00 FF FF FF FF FF
  0.075839 20  1CEFFA03x       Rx   d 8 AD 03 00 00 00 F9 8B 00
  0.075864 20  1C8BDAEBx       Rx   d 8 00 00 00 00 00 00 00 00
  0.075877 20  1CEFFA03x       Rx   d 8 AD 04 81 00 72 00 3B 02
  0.075883 20  1C8BDAEBx       Rx   d 8 01 00 00 00 00 00 00 00
  0.076080 24  18EF0600x       Rx   d 8 64 0E 3C 00 FF FF FF FF
  0.076101 24  0CEFFF00x       Rx   d 8 64 06 8F 7D 59 66 1D 00
  0.076106 24  0CF00300x       Rx   d 8 FF FE 0A FF FF FF 59 FF
  0.076111 24  0CF00400x       Rx   d 8 F0 FF 88 78 25 FF F4 FF
  0.076178 23  18FFFDF3x       Rx   d 8 00 02 01 0A 00 02 19 23
  0.076943 20  1C8BDAEBx       Rx   d 8 02 00 00 00 00 00 00 00
  0.076968 20  1C8BDAEBx       Rx   d 8 03 00 00 00 00 00 00 00
  0.076974 20  18FEF65Bx       Rx   d 8 FF FE FF FF FE FF FF FF
  0.076979 20  1CEFFA03x       Rx   d 8 AD 06 61 0C C7 0C 94 A5
  0.077183 24  18EFFF00x       Rx   d 8 F8 21 04 00 00 00 00 00
  0.077202 24  1CEFFA03x       Rx   d 8 AD 06 61 0C C7 0C 94 A5
  0.077208 24  1CEFFA03x       Rx   d 8 AD 07 02 01 19 00 D0 50
  0.077212 24  1CEFFA03x       Rx   d 8 AD 08 1E 09 91 04 10 27
  0.078144 20  1CEFFA03x       Rx   d 8 AD 07 02 01 19 00 D0 50
  0.078167 20  1CEFFA03x       Rx   d 8 AD 08 1E 09 91 04 10 27
  0.078173 20  1CEFFA03x       Rx   d 8 AD 09 10 27 20 4E 20 4E
  0.078177 20  1CEFFA03x       Rx   d 8 AD 0A 20 4E 20 4E 20 4E
  0.078385 24  1CEFFA03x       Rx   d 8 AD 09 10 27 20 4E 20 4E
  0.078404 24  1CEFFA03x       Rx   d 8 AD 0A 20 4E 20 4E 20 4E
  0.078409 24  1CEFFA03x       Rx   d 8 AD 0B 20 4E 20 4E 20 4E
  0.078413 24  1CEFFA03x       Rx   d 8 AD 0D 00 00 3C 02 00 00
  0.079171 30  18FFFF33x       Rx   d 8 51 FF 0F FF FF FF FF FF
  0.079347 20  18FFFA31x       Rx   d 8 02 98 FF FF FF 05 FF FF
  0.079369 20  1CEFFA03x       Rx   d 8 AD 0B 20 4E 20 4E 20 4E
  0.079376 20  0CFFF331x       Rx   d 8 31 8A 24 FF FF FF FF F8
  0.079381 20  1CEFFA03x       Rx   d 8 AD 0D 00 00 3C 02 00 00
  0.079585 24  1CEFFA03x       Rx   d 8 AD 0E 00 00 67 00 81 00
  0.080446 20  1CEFFA03x       Rx   d 8 AD 0E 00 00 67 00 81 00
  0.080696 26  0CFFF38Cx       Rx   d 8 31 8F 24 FF FF FF FF F8
  0.080723 26  18FFF88Cx       Rx   d 8 79 FF FE 17 00 84 63 00
  0.081089 24  18EF00FAx       Rx   d 8 53 E4 5B 05 04 FF FF FF
  0.081851 20  18EFFF5Bx       Rx   d 8 F1 2A FF FE FF FE FF FF
  0.081873 20  18FFFA5Bx       Rx   d 8 06 01 84 03 9F 01 F0 FF
  0.083055 20  1CE67F26x       Rx   d 8 A8 38 04 00 05 04 00 00
  0.083078 20  1CE7267Fx       Rx   d 8 A8 40 04 FF 4A 04 00 00
  0.083084 20  1CE726EAx       Rx   d 8 A8 72 04 FF 92 5E 00 00
  0.083302 26  1CE67F26x       Rx   d 8 A8 38 04 00 05 04 00 00
  0.084570 20  18EFFF31x       Rx   d 8 64 6A 01 00 00 00 00 37
  0.084573 26  0CF00432x       Rx   d 8 FF FF FF 7E 25 FF FF FF
  0.084608 20  1CEFFA03x       Rx   d 8 AD 09 10 27 20 4E 20 4E
  0.084615 20  1CEFFA03x       Rx   d 8 AD 0B 20 4E 20 4E 20 4E
  0.084913 27  0CC49823x       Rx   d 8 00 FF F0 FF FF FF FF FF
  0.084914 24  1CEFFA03x       Rx   d 8 AD 09 10 27 20 4E 20 4E
  0.084942 24  1CEFFA03x       Rx   d 8 AD 0B 20 4E 20 4E 20 4E
  0.084949 24  18EFFA00x       Rx   d 8 A5 E4 5B 05 FF FF FF FF
  0.084957 24  0CF00400x       Rx   d 8 F0 FF 88 78 25 FF F4 FF
  0.084996 23  18FED94Dx       Rx   d 8 F0 FF FF FF FF FF FF FF
  0.085502 22  198BF46Cx       Rx   d 8 64 90 00 00 00 00 00 00
  0.085529 22  198BF46Cx       Rx   d 8 64 91 B4 00 FF FF FF FF
  0.085859 20  18EFFA00x       Rx   d 8 A5 E4 5B 05 FF FF FF FF
  0.086100 24  18F02300x       Rx   d 8 00 00 F2 FF FF 02 FF FF
  0.086299 23  18FFFDF3x       Rx   d 8 00 02 02 0A 00 02 19 23
  0.087363 20  0CF0045Bx       Rx   d 8 FF FF 88 78 25 FF F4 FF
  0.089772 20  18FFFB26x       Rx   d 8 F9 01 00 00 00 FF FF FF
  0.089815 20  18FF1B31x       Rx   d 8 27 22 DF 00 E0 A3 00 00
  0.089839 26  0CFF1BE5x       Rx   d 8 27 22 DF 00 E0 A3 00 00
  0.090013 25  18EFFFF0x       Rx   d 8 64 6A 01 00 00 00 00 37
  0.090413 24  18FF1BF2x       Rx   d 8 27 22 DF 00 E0 A3 00 00
  0.091879 20  18FFFA5Bx       Rx   d 8 06 01 84 03 A0 01 F0 FF
  0.091905 20  1CE67F26x       Rx   d 8 A8 40 04 00 4A 04 00 00
  0.091912 20  1CE6EA26x       Rx   d 8 A8 72 04 00 92 5E 00 00
  0.091918 20  1CE7267Fx       Rx   d 8 A8 AA 04 FF 4C 4B 00 00
  0.092045 24  04EF0006x       Rx   d 8 64 15 18 F0 00 40 C0 12
  0.092519 26  1CE67F26x       Rx   d 8 A8 40 04 00 4A 04 00 00
  0.092542 26  1CE6EA26x       Rx   d 8 A8 72 04 00 92 5E 00 00
  0.094940 24  1CEFFA03x       Rx   d 8 AD 09 10 27 20 4E 20 4E
  0.094940 27  0CC49823x       Rx   d 8 00 FF F0 FF FF FF FF FF
  0.094987 24  1CEFFA03x       Rx   d 8 AD 0B 20 4E 20 4E 20 4E
  0.095006 24  18EFFF00x       Rx   d 8 64 10 05 05 AE 18 80 BC
  0.095284 20  1CEFFA03x       Rx   d 8 AD 09 10 27 20 4E 20 4E
  0.095311 20  1CEFFA03x       Rx   d 8 AD 0B 20 4E 20 4E 20 4E
  0.095319 20  18EFFA26x       Rx   d 8 AD 22 08 00 08 00 03 00
  0.095323 20  1C8BDAEBx       Rx   d 8 00 00 00 00 00 00 00 00
  0.096029 24  0CEFFF00x       Rx   d 8 64 06 92 7D 59 66 1D 00
  0.096056 24  0CF00300x       Rx   d 8 FF FE 0A FF FF FF 59 FF
  0.096066 24  0CF00400x       Rx   d 8 F0 FF 88 7E 25 FF F4 FF
  0.096071 24  18FEF600x       Rx   d 8 FF 0B 1F FF 07 FF FF FF
  0.096328 22  198C70F4x       Rx   d 8 64 80 00 03 00 03 00 03
  0.096357 22  198C6CF4x       Rx   d 8 64 80 00 03 00 03 00 03
  0.096587 20  18EFFA26x       Rx   d 8 AD 0B FF FF FF FF FF FF
  0.096614 20  1C8BDAEBx       Rx   d 8 01 00 00 00 00 00 00 00
  0.096623 20  18EFFA26x       Rx   d 8 AD 13 FF FF FF FF FF FF
  0.096629 20  18F0235Bx       Rx   d 8 00 00 00 00 00 00 00 00
  0.097888 20  18FEF65Bx       Rx   d 8 FF FE FF FF FE FF FF FF
  0.100041 25  18FFFFF0x       Rx   d 8 07 FF FF FF FF FF FF FF
  0.100072 25  0CFFF3F0x       Rx   d 8 31 FF FF FF FF FF FF F8
  0.100839 22  198C70F4x       Rx   d 8 64 81 00 03 FF FF FF FF
  0.100877 22  198C6CF4x       Rx   d 8 64 81 00 03 FF FF FF FF
  0.101238 25  18FFFFF0x       Rx   d 8 05 FF FF FF FF FF FF FF
  0.101262 25  18EFFFF0x       Rx   d 8 64 76 FC 77 77 D0 FF FF
  0.101743 24  18FFFEF2x       Rx   d 8 05 FC FF FF FF FF FF FF
  0.101772 24  0CADFFF2x       Rx   d 8 FF FF 00 00 00 00 00 00
  0.101783 24  18FEE8F2x       Rx   d 8 00 00 FF FF 00 00 00 00
  0.101788 24  18FFFBF2x       Rx   d 8 FB 0F 00 00 05 05 FF 42
  0.101900 20  18EFFF5Bx       Rx   d 8 F1 2A FF FE FF FE FF FF
  0.101928 20  18FFFA5Bx       Rx   d 8 06 01 84 03 9F 01 F0 FF
  0.101937 20  0CADFF26x       Rx   d 8 FF FF FC FF FF FF FF FF
  0.102340 25  18FFF4F0x       Rx   d 8 64 00 00 00 00 00 01 00
  0.102366 25  18FFF8F0x       Rx   d 8 28 F0 FF FF FF FF FF FF
  0.103016 20  18FFF426x       Rx   d 8 64 0A 51 50 00 4F 11 FF
  0.103019 24  18EFFFF2x       Rx   d 8 F8 20 F2 FF FF FF FF FF
  0.103046 24  18FFFBF2x       Rx   d 8 F9 01 00 00 00 FF FF FF
  0.103055 24  18FFF4F2x       Rx   d 8 64 0A 51 50 00 4F 01 00
  0.103055 20  1CE67F26x       Rx   d 8 A8 AA 04 00 4C 4B 00 00
  0.103060 24  18FFF8F2x       Rx   d 8 28 F0 FF FF FF FF FF FF
  0.103555 26  1CE67F26x       Rx   d 8 A8 AA 04 00 4C 4B 00 00
  0.103557 25  18EFFFF0x       Rx   d 8 64 48 FF FF FF FD FF FF
  0.103581 26  0CF00432x       Rx   d 8 FF FF FF 78 25 FF FF FF
  0.103583 25  18FFFFF0x       Rx   d 8 53 FF FF FF FF FF FF FF
  0.103642 27  0CC62398x       Rx   d 8 7D 7D 00 FF FF FF FF FF
  0.104043 24  18EFFFF2x       Rx   d 8 64 58 F0 F4 80 01 8A 24
  0.104067 24  18FFFFF2x       Rx   d 8 E1 00 00 00 FF FF 00 00
  0.104079 24  18FFF4F2x       Rx   d 8 5E 05 00 00 00 67 00 00
  0.104089 24  1CEFFA03x       Rx   d 8 AD 01 00 0B 01 0A 12 9F
  0.104299 20  1CE7267Fx       Rx   d 8 A8 AB 04 FF 00 00 00 00
  0.104746 25  18FFFFF0x       Rx   d 8 51 FF FF FF FF FF FF FF
  0.104774 25  18EFFFF0x       Rx   d 8 F1 07 CC FC FF 00 FF CC
  0.104944 27  0CC49823x       Rx   d 8 00 FF F0 FF FF FF FF FF
  0.105419 20  1CEFFA03x       Rx   d 8 AD 01 00 0B 01 0A 12 9F
  0.105422 24  1CEFFA03x       Rx   d 8 AD 09 10 27 20 4E 20 4E
  0.105448 24  1CEFFA03x       Rx   d 8 AD 0B 20 4E 20 4E 20 4E
  0.105449 20  1CEFFA03x       Rx   d 8 AD 09 10 27 20 4E 20 4E
  0.105453 24  0CF00400x       Rx   d 8 F0 FF 88 82 25 FF F4 FF
  0.105460 20  1CEFFA03x       Rx   d 8 AD 0B 20 4E 20 4E 20 4E
  0.105847 25  18FFFEF0x       Rx   d 8 FD FB FB FF FF FF FF FF
  0.105873 25  18FFFFF0x       Rx   d 8 E1 00 FF FF FF FF 00 00
  0.106352 22  0CEF41F4x       Rx   d 8 64 30 F0 FA 5C 04 FF FF
  0.106378 22  0CEF43F4x       Rx   d 8 64 30 F0 FA 6B 0C FF FF
  0.106387 22  0CEF44F4x       Rx   d 8 64 30 F0 FA 00 00 FF FF
  0.106392 22  0CEF47F4x       Rx   d 8 64 30 F0 FA 00 00 FF FF
  0.107310 20  0CF0045Bx       Rx   d 8 FF FF 88 7E 25 FF F4 FF
  0.107451 22  0CEF45F4x       Rx   d 8 64 30 F0 FA 00 00 FF FF
  0.107477 22  0CEF42F4x       Rx   d 8 64 30 F0 FA A8 05 FF FF
  0.110679 22  198BF46Cx       Rx   d 8 64 90 56 00 00 00 00 00
  0.110737 22  198BF46Cx       Rx   d 8 64 91 B4 00 FF FF FF FF
  0.110951 20  0CFF18EBx       Rx   d 8 C0 11 00 06 40 07 07 20
  0.110980 20  0CF61EEBx       Rx   d 8 FF 03 40 FF C3 FF F3 40
  0.110988 20  0CF61FEBx       Rx   d 8 FF 04 40 FF C3 FF F3 80
  0.110993 20  0CF620EBx       Rx   d 8 FF 01 80 FF C3 FF F3 20
  0.111965 24  04EF0006x       Rx   d 8 64 15 19 F0 00 40 C0 12
  0.112122 20  0CF0035Bx       Rx   d 8 FF FF 0A FF FF FF FF FF
  0.112148 20  0CF621EBx       Rx   d 8 FF 02 80 FF C3 FF F3 C0
  0.112159 20  1CE67F26x       Rx   d 8 A8 AB 04 00 00 00 00 00
  0.112164 20  0CF622EBx       Rx   d 8 FF 07 40 FF 00 00 F3 70
  0.112864 26  1CE67F26x       Rx   d 8 A8 AB 04 00 00 00 00 00
  0.113224 20  1CE7267Fx       Rx   d 8 A8 AC 04 FF 00 00 00 00
  0.113253 20  0CF623EBx       Rx   d 8 FF 01 40 FF 3F FF F3 60
  0.113268 20  0CF624EBx       Rx   d 8 FF 02 40 FF 3F FF F3 80
  0.113276 20  0CF625EBx       Rx   d 8 FF 05 40 FF 3F FF F3 40
  0.113764 24  18EF00FAx       Rx   d 8 53 E5 5B 05 04 FF FF FF
  0.114337 26  18FFFB32x       Rx   d 8 00 4B 50 FA 50 FF FF FF
  0.114345 30  18FFFE33x       Rx   d 8 73 FF FF FF FF FF FF FF
  0.114354 20  18FFFE31x       Rx   d 8 05 FC FF FF FF FF FF FF
  0.114377 30  18D0FF33x       Rx   d 8 FA FA FF FF FF FF FF FF
  0.114382 20  0CF626EBx       Rx   d 8 FF 06 40 FF 3F FF F3 A0
  0.114383 30  18EFFF33x       Rx   d 8 F4 31 88 88 8F FF FF 88
  0.114388 30  0CFFFE33x       Rx   d 8 8E FF FF FF FF FF FF FF
  0.114388 26  18D0FF32x       Rx   d 8 FA FA FF FF FF FF FF FF
  0.114389 20  18FFFF31x       Rx   d 8 87 FF 00 FF FF FF FF FF
  0.114393 26  18FFFB32x       Rx   d 8 00 4C FC FF FF FF FF FF
  0.114393 20  0CF627EBx       Rx   d 8 FF 03 80 FF 3F FF F3 00
  0.114398 26  18EFFF32x       Rx   d 8 FC 09 00 00 FF FF FF 00
  0.114869 24  08FEF103x       Rx   d 8 FF 00 00 CF FF FF FF FF
  0.114891 24  1CEFFA03x       Rx   d 8 AD 02 88 13 88 13 88 13
  0.114903 24  08EFFF03x       Rx   d 8 64 61 40 2F 1F 0F FF FF
  0.114920 24  18EFFA00x       Rx   d 8 A5 E5 5B 05 FF FF FF FF
  0.114964 27  0CC49823x       Rx   d 8 00 FF F0 FF FF FF FF FF
  0.115541 26  18EFFF32x       Rx   d 8 F2 25 00 FF FF FF FF FF
  0.115546 30  18FFFE33x       Rx   d 8 5E FF FF FF FF FF FF FF
  0.115552 20  18FFFF31x       Rx   d 8 09 FF FF FF FF F3 FF FF
  0.115565 30  18FFFE33x       Rx   d 8 5D FF FF FF FF FF FF FF
  0.115568 26  18EFFF32x       Rx   d 8 F8 A0 00 00 F0 FF FF FF
  0.115569 20  0CF628EBx       Rx   d 8 FF 04 80 FF 3F FF F3 C0
  0.115570 30  18FFF833x       Rx   d 8 0B FF FF FF FF FF FF FF
  0.115573 26  18FFFB32x       Rx   d 8 F2 26 4F FF FF FF FF FF
  0.115576 20  18FFFF31x       Rx   d 8 06 FF FF FF FF FF FF 3F
  0.115577 30  18EFFF33x       Rx   d 8 F4 15 FF FF FF FF FF FF
  0.115581 20  18EFFA00x       Rx   d 8 A5 E5 5B 05 FF FF FF FF
  0.115972 24  0CEFFF00x       Rx   d 8 64 06 8F 7D 59 66 1D 00
  0.115995 24  0CF00300x       Rx   d 8 FF FE 0A FF FF FF 59 FF
  0.116004 24  0CF00400x       Rx   d 8 F0 FF 88 80 25 FF F4 FF
  0.116009 24  1CEFFA03x       Rx   d 8 AD 03 00 00 00 F9 8E 00
  0.116169 22  18FFFDF4x       Rx   d 8 00 02 04 0A 00 02 19 26
  0.116652 20  18FFFE31x       Rx   d 8 0B FF FF 03 FF FF FF FF
  0.116673 20  1C8BDAEBx       Rx   d 8 00 00 00 00 00 00 00 00
  0.116681 20  18D0FF31x       Rx   d 8 FA FA FF FF FF FF FF FF
  0.116687 20  1C8BDAEBx       Rx   d 8 01 00 00 00 00 00 00 00
  0.117176 24  1CEFFA03x       Rx   d 8 AD 04 81 00 72 00 3B 02
  0.117200 24  1CEFFA03x       Rx   d 8 AD 06 7A 0C C7 0C 96 A5
  0.117210 24  1CEFFA03x       Rx   d 8 AD 07 01 01 19 00 DA 50
  0.117214 24  1CEFFA03x       Rx   d 8 AD 08 1E 09 91 04 10 27
  0.117836 20  18FEF65Bx       Rx   d 8 FF 0B FF FF 07 FF FF FF
  0.117861 20  18FFFF31x       Rx   d 8 EA FF FF FF FF FF FF FF
  0.117874 20  18EFFF31x       Rx   d 8 F2 24 0F FF FF FF FF FF
  0.117880 20  18EFFF31x       Rx   d 8 F8 20 F2 FF FF FF FF FF
  0.118381 24  1CEFFA03x       Rx   d 8 AD 09 10 27 20 4E 20 4E
  0.118417 24  1CEFFA03x       Rx   d 8 AD 0A 20 4E 20 4E 20 4E
  0.118438 24  1CEFFA03x       Rx   d 8 AD 0B 20 4E 20 4E 20 4E
  0.118443 24  1CEFFA03x       Rx   d 8 AD 0C 29 27 19 00 00 B7
  0.118936 20  18FFF831x       Rx   d 8 28 00 FF FF FF FF FF FF
  0.118959 20  1CEFFA03x       Rx   d 8 AD 02 88 13 88 13 88 13
  0.118968 20  18FFF831x       Rx   d 8 45 FF FF F0 F0 FF FF FF
  0.118973 20  0CFFEC31x       Rx   d 8 FF FF FF FF FF FF FF 3F
  0.119480 24  18FFF413x       Rx   d 8 5F 9F 60 01 00 00 00 00
  0.119503 24  1CEFFA03x       Rx   d 8 AD 0D 00 00 3C 02 00 00
  0.119510 24  18FFF413x       Rx   d 8 63 00 00 00 10 01 00 00
  0.119518 24  1CEFFA03x       Rx   d 8 AD 0E 00 00 67 00 81 00
  0.120140 20  0CFE4131x       Rx   d 8 FC FF FF FF CF FF FF FF
  0.120179 20  18EFFF31x       Rx   d 8 64 65 00 00 00 FF FF FF
  0.120188 20  18EFFF31x       Rx   d 8 64 66 00 00 00 55 FF FF
  0.120193 20  18EFFF31x       Rx   d 8 64 67 87 69 4B 82 FF FF
  0.120687 24  0CACFF13x       Rx   d 8 72 7D 30 20 00 00 00 00
  0.120694 26  0CFFF38Cx       Rx   d 8 31 8A 24 FF FF FF FF F8
  0.120711 26  18FFF88Cx       Rx   d 8 79 FF FE 17 00 84 64 00
  0.120711 24  18FFF8C5x       Rx   d 8 9B 00 7D 00 64 80 F0 FF
  0.121241 20  18EFFFEAx       Rx   d 8 64 57 F2 F8 2A FF FF FF
  0.121264 20  18FFF831x       Rx   d 8 30 FF FF FF FF FF FF 1F
  0.121273 20  18FFF8EAx       Rx   d 8 9B FF FF FF FF FF FF FF
  0.121278 20  18EFFF5Bx       Rx   d 8 F1 2A FF FE FF FE FF FF
  0.122447 20  18FFFF31x       Rx   d 8 E4 FF FF FF FF FF FF FF
  0.122475 20  18EFFF5Bx       Rx   d 8 64 53 25 01 C0 01 04 FF
  0.122485 20  18EFFF31x       Rx   d 8 F0 02 CC 00 30 F0 FF FF
  0.122490 20  1CE67F26x       Rx   d 8 A8 AC 04 00 00 00 00 00
  0.123559 26  1CE67F26x       Rx   d 8 A8 AC 04 00 00 00 00 00
  0.123563 20  18EFFF31x       Rx   d 8 F4 19 00 FF FF FF FF FF
  0.123589 26  0CF00432x       Rx   d 8 FF FF FF 7E 25 FF FF FF
  0.123590 20  1CE726ECx       Rx   d 8 FF FF FF FF FF FF FF FF
  0.123597 20  18EFFF31x       Rx   d 8 F1 07 CC CC 00 00 00 00
  0.123602 20  1CE7267Fx       Rx   d 8 A8 5B 04 FF 53 04 00 00
  0.124654 20  18FFF831x       Rx   d 8 85 00 00 FF FF FF FF FC
  0.124687 20  1CEFFA03x       Rx   d 8 AD 03 00 00 00 F9 8E 00
  0.124696 20  18FFFE31x       Rx   d 8 FD FB FB FB FB FF FF FF
  0.124701 20  0CFDCC31x       Rx   d 8 00 30 FF FF FF FF FF FF
  0.124891 24  1CEFFA03x       Rx   d 8 AD 09 10 27 20 4E 20 4E
  0.124914 24  1CEFFA03x       Rx   d 8 AD 0B 20 4E 20 4E 20 4E
  0.124990 27  0CC49823x       Rx   d 8 00 FF F0 FF FF FF FF FF
  0.125856 20  18FFFF31x       Rx   d 8 EC FF FF FF FF FD FF FF
  0.125887 20  18FFFB31x       Rx   d 8 F2 26 4F FF FF FF FF FF
  0.125901 20  1C8BDAEBx       Rx   d 8 02 00 00 00 00 00 00 00
  0.125915 20  18EFFF31x       Rx   d 8 F2 0D FF FF FF FF FF FF
  0.125993 24  0CF00400x       Rx   d 8 F0 FF 88 7C 25 FF F4 FF
  0.126295 23  0CEF42F3x       Rx   d 8 64 30 F0 96 D5 07 FF FF
  0.126318 23  18A74DF3x       Rx   d 8 FF FF FF FF FF FF FF FF
  0.126339 23  0CEF47F3x       Rx   d 8 64 30 F0 FA 00 00 FF FF
  0.126346 23  0CEF43F3x       Rx   d 8 64 30 F0 FA 00 00 FF FF
  0.126495 22  198C70F4x       Rx   d 8 64 80 00 03 00 03 00 03
  0.126519 22  198C6CF4x       Rx   d 8 64 80 00 03 00 03 00 03
  0.126595 11  0CEF42F3x       Rx   d 8 64 30 F0 96 D5 07 FF FF
  0.126620 11  0CEF47F3x       Rx   d 8 64 30 F0 FA 00 00 FF FF
  0.126626 11  0CEF43F3x       Rx   d 8 64 30 F0 FA 00 00 FF FF
  0.126956 20  1C8BDAEBx       Rx   d 8 03 00 00 00 00 00 00 00
  0.126983 20  0CFFF331x       Rx   d 8 31 8F 24 FF FF FF FF F8
  0.126991 20  08FEF15Bx       Rx   d 8 FF 00 00 CF FF FF FF FF
  0.127000 20  0CF0045Bx       Rx   d 8 FF FF 88 80 25 FF F4 FF
  0.127394 23  0CEF45F3x       Rx   d 8 64 30 F0 FA 00 00 FF FF
  0.127596 24  18EFFFF2x       Rx   d 8 64 53 FF FF FF FF 04 FF
  0.127694 11  0CEF45F3x       Rx   d 8 64 30 F0 FA 00 00 FF FF
  0.000035 3  0CFFFE7Ex       Rx   d 8 EE 03 C4 00 AD 16 95 7A
  0.000035 3  0CFFFE7Ex       Rx   d 8 EE 05 42 00 00 00 00 00
  0.000035 3  0CFFFE7Ex       Rx   d 8 EE 05 42 00 00 00 00 00
  0.128158 20  18FFFA5Bx       Rx   d 8 06 01 84 03 9E 01 F0 FF
  0.128182 20  1CEFFA03x       Rx   d 8 AD 0B 20 4E 20 4E 20 4E
  0.128188 20  1CEFFA03x       Rx   d 8 AD 0E 00 00 67 00 81 00
  0.128209 20  1CEFFA03x       Rx   d 8 AD 04 81 00 72 00 3B 02
  0.129255 20  1CEFFA03x       Rx   d 8 AD 0B 20 4E 20 4E 20 4E
  0.129276 20  1CE726EDx       Rx   d 8 FF FF FF FF FF FF FF FF
  0.129285 20  1CFECA31x       Rx   d 8 00 FF 00 00 00 00 FF FF
  0.130117 25  18EFFFF0x       Rx   d 8 64 65 FF FF 00 00 FF FF
  0.130821 22  08FEF1F4x       Rx   d 8 FF 00 00 FF FF FF FF FF
  0.130823 23  08FEF1F3x       Rx   d 8 FF 00 00 FF FF FF FF FF
  0.130840 22  198C70F4x       Rx   d 8 64 81 00 03 FF FF FF FF
  0.130870 22  198C6CF4x       Rx   d 8 64 81 00 03 FF FF FF FF
  0.131377 20  0CFFFE17x       Rx   d 8 48 FF FF FF FF FF FF FF
  0.131395 20  0CACFF5Bx       Rx   d 8 72 7D 3C 3F C0 FF FF FF
  0.131826 24  18EFFFF2x       Rx   d 8 F8 0B FF FF FF FF F0 FF
  0.131844 24  04EF0006x       Rx   d 8 64 15 1A F0 00 40 C0 12
  0.133291 20  1CE67F26x       Rx   d 8 A8 5B 04 00 53 04 00 00
  0.133637 26  1CE67F26x       Rx   d 8 A8 5B 04 00 53 04 00 00
  0.133666 26  08FEF132x       Rx   d 8 FF 00 00 CF FF FF FF FF
  0.134294 30  08FEF133x       Rx   d 8 FF 00 00 FF FF FF FF FF
  0.134795 20  1CE7267Fx       Rx   d 8 A8 61 04 FF 53 04 00 00
  0.134819 20  1CEFFA03x       Rx   d 8 AD 09 10 27 20 4E 20 4E
  0.134836 20  1CEFFA03x       Rx   d 8 AD 0B 20 4E 20 4E 20 4E
  0.134937 24  1CEFFA03x       Rx   d 8 AD 09 10 27 20 4E 20 4E
  0.134937 27  0CC49823x       Rx   d 8 00 FF F0 FF FF FF FF FF
  0.134959 24  1CEFFA03x       Rx   d 8 AD 0B 20 4E 20 4E 20 4E
  0.135022 24  0CEFFF00x       Rx   d 8 64 06 8D 7D 59 66 1D 00
  0.135127 25  08FEF1F0x       Rx   d 8 FF 00 00 FF FF FF FF FF
  0.135528 22  198BF46Cx       Rx   d 8 64 90 56 00 00 00 00 00
  0.135544 22  198BF46Cx       Rx   d 8 64 91 12 01 FF FF FF FF
  0.136111 24  0CF00300x       Rx   d 8 FF FE 0A FF FF FF 59 FF
  0.136114 20  1C8BDAEBx       Rx   d 8 00 00 00 00 00 00 00 00
  0.136136 24  0CF00400x       Rx   d 8 F0 FF 88 82 25 FF F4 FF
  0.136141 20  1C8BDAEBx       Rx   d 8 01 00 00 00 00 00 00 00
  0.136167 24  18F02300x       Rx   d 8 00 00 F2 FF FF 02 FF FF
  0.137500 20  18FEF65Bx       Rx   d 8 FF 0B FF FF 07 FF FF FF
  0.139850 26  0CFF1BE5x       Rx   d 8 27 23 DF 00 F0 60 00 00
  0.140053 25  0CFFF3F0x       Rx   d 8 31 FF FF FF FF FF FF F8
  0.140207 20  18FF1B31x       Rx   d 8 27 23 DF 00 F0 60 00 00
  0.140450 24  18FF1BF2x       Rx   d 8 27 23 DF 00 F0 60 00 00
  0.140854 23  10FFFF43x       Rx   d 8 F6 FF 00 00 F1 00 00 00
  0.141155 11  10FFFF43x       Rx   d 8 F6 FF 00 00 F1 00 00 00
  0.141828 24  18EFFFF2x       Rx   d 8 F8 20 F2 FF FF FF FF FF
  0.141830 20  18FFF45Bx       Rx   d 8 5F 9F 60 01 00 00 00 00
  0.141850 20  0CFD925Bx       Rx   d 8 F4 FF FF FF FF FF FF FF
  0.141860 20  18FFFB5Bx       Rx   d 8 FB 0F 00 00 05 05 FF 42
  0.141869 20  0CFFEC5Bx       Rx   d 8 FF FF FF FF FF F0 FF FC
  0.143019 20  18EFFF5Bx       Rx   d 8 64 57 2F FF FF 00 00 FF
  0.143045 20  18EFFF5Bx       Rx   d 8 F1 2A FF FE FF FE FF FF
  0.143054 20  1CE67F26x       Rx   d 8 A8 61 04 00 53 04 00 00
  0.143059 20  18EFFF5Bx       Rx   d 8 F8 21 04 00 00 00 00 00
  0.143860 26  1CE67F26x       Rx   d 8 A8 61 04 00 53 04 00 00
  0.143876 26  0CF00432x       Rx   d 8 FF FF FF 80 25 FF FF FF
  0.144116 20  18FFF45Bx       Rx   d 8 63 00 00 00 10 01 00 00
  0.144139 20  1CE7267Fx       Rx   d 8 A8 7B 04 FF C2 00 00 00
  0.144150 20  18FFFA5Bx       Rx   d 8 06 01 84 03 9F 01 F0 FF
  0.144155 20  18FFFFEAx       Rx   d 8 16 FF 00 3B FF FF 03 00
  0.144253 22  10FFFF47x       Rx   d 8 F6 FF 00 00 F0 00 19 19
  0.145031 24  1CEFFA03x       Rx   d 8 AD 09 10 27 20 4E 20 4E
  0.145031 27  0CC49823x       Rx   d 8 00 FF F0 FF FF FF FF FF
  0.145057 24  1CEFFA03x       Rx   d 8 AD 0B 20 4E 20 4E 20 4E
  0.145065 24  0CF00400x       Rx   d 8 F0 FF 88 84 25 FF F4 FF
  0.145324 20  1CEFFA03x       Rx   d 8 AD 09 10 27 20 4E 20 4E
  0.145347 20  1CEFFA03x       Rx   d 8 AD 0B 20 4E 20 4E 20 4E
  0.145358 20  18EFFFEBx       Rx   d 8 F4 16 F0 FF FF FF FF FF
  0.145564 23  10FFFF47x       Rx   d 8 F6 FF 00 00 F0 00 E5 07
  0.145767 29  09F11280x       Rx   d 8 AE EE 0B 00 00 9D 00 FD
  0.146268 24  18FEDF00x       Rx   d 8 82 80 25 FF FF FF FF 00
  0.146293 24  18FFFA00x       Rx   d 8 02 2C 00 00 08 0C 00 21
  0.146628 20  18EFFFEBx       Rx   d 8 64 48 FF FF FF 0D 25 FF
  0.146654 20  18EFFFEBx       Rx   d 8 F2 25 00 FF FF FF FF FF
  0.146667 20  18EFFFEBx       Rx   d 8 64 A3 F0 0F FF FF FF FF
  0.146675 20  18F0235Bx       Rx   d 8 00 00 00 00 00 00 00 00
  0.147559 24  18EFFFF2x       Rx   d 8 64 58 F0 F4 80 01 8F 24
  0.147829 20  0CF0045Bx       Rx   d 8 FF FF 88 82 25 FF F4 FF
  0.149072 23  18A7004Dx       Rx   d 8 00 00 00 00 00 00 00 00
  0.150541 24  18EF00FAx       Rx   d 8 53 E6 5B 05 04 FF FF FF
  0.150776 23  0CFD92F3x       Rx   d 8 F4 FF FF FF FF FF FF FF
  0.150791 23  10FFFF45x       Rx   d 8 F6 FF 00 00 F0 00 1B 19
  0.151125 11  0CFD92F3x       Rx   d 8 F4 FF FF FF FF FF FF FF
  0.151142 11  10FFFF45x       Rx   d 8 F6 FF 00 00 F0 00 1B 19
  0.151799 24  18FFFFF2x       Rx   d 8 F7 01 FF FF FF FF FF FF
  0.151819 24  04EF0006x       Rx   d 8 64 15 1B F0 00 40 C0 12
  0.151826 24  0CFFF606x       Rx   d 8 FF FF FF FF FF 00 00 FF
  0.151903 24  18FFFFF2x       Rx   d 8 EC FF FF FF FF FD FF FF
  0.151931 20  18FFFA5Bx       Rx   d 8 06 01 84 03 A0 01 F0 FF
  0.153982 20  1CE67F26x       Rx   d 8 A8 7B 04 00 C2 00 00 00
  0.154005 20  18EFFF31x       Rx   d 8 F8 20 F2 FF FF FF FF FF
  0.154011 23  10FFFF42x       Rx   d 8 F6 FF 00 00 F0 00 D7 07
  0.154223 22  10FFFF45x       Rx   d 8 F6 FF 00 00 F0 00 F8 05
  0.154253 26  1CE67F26x       Rx   d 8 A8 7B 04 00 C2 00 00 00
  0.154253 11  10FFFF42x       Rx   d 8 F6 FF 00 00 F0 00 D7 07
  0.154882 27  0CC49823x       Rx   d 8 00 FF F0 FF FF FF FF FF
  0.154983 24  1CEFFA03x       Rx   d 8 AD 02 88 13 88 13 88 13
  0.155003 24  08EFFF03x       Rx   d 8 64 61 41 2F 1F 0F FF FF
  0.155013 24  18EFFA00x       Rx   d 8 A5 E6 5B 05 FF FF FF FF
  0.155035 24  1CEFFA03x       Rx   d 8 AD 03 00 00 00 F9 8E 00
  0.155365 20  1CEFFA03x       Rx   d 8 AD 02 88 13 88 13 88 13
  0.155380 20  18EFFA00x       Rx   d 8 A5 E6 5B 05 FF FF FF FF
  0.155385 20  1C8BDAEBx       Rx   d 8 00 00 00 00 00 00 00 00
  0.156056 24  1CEFFA03x       Rx   d 8 AD 04 81 00 72 00 3B 02
  0.156069 24  0CEFFF00x       Rx   d 8 64 06 8D 7D 59 66 1D 00
  0.156074 24  0CF00300x       Rx   d 8 FF FE 0A FF FF FF 59 FF
  0.156078 24  0CF00400x       Rx   d 8 F0 FF 88 86 25 FF F4 FF
  0.156284 22  198C70F4x       Rx   d 8 64 80 00 03 00 03 00 03
  0.156302 22  198C6CF4x       Rx   d 8 64 80 00 03 00 03 00 03
  0.156309 22  10FFFF41x       Rx   d 8 F6 FF 00 00 F2 00 5C 04
  0.156516 20  1CEFFA03x       Rx   d 8 AD 03 00 00 00 F9 8E 00
  0.156531 20  1C8BDAEBx       Rx   d 8 01 00 00 00 00 00 00 00
  0.156542 20  1CEFFA03x       Rx   d 8 AD 04 81 00 72 00 3B 02
  0.156562 20  18FEF65Bx       Rx   d 8 FF 0B FF FF 07 FF FF FF
  0.157306 24  18FEF200x       Rx   d 8 CB 00 FF FF FF FF FF FF
  0.157329 24  1CEFFA03x       Rx   d 8 AD 06 61 0C C7 0C 9F A5
  0.157345 24  1CEFFA03x       Rx   d 8 AD 07 02 01 19 00 D0 50
  0.157361 24  1CEFFA03x       Rx   d 8 AD 08 1E 09 91 04 10 27
  0.157853 20  1CEFFA03x       Rx   d 8 AD 06 61 0C C7 0C 9F A5
  0.157875 20  1CEFFA03x       Rx   d 8 AD 07 02 01 19 00 D0 50
  0.157881 20  1CEFFA03x       Rx   d 8 AD 08 1E 09 91 04 10 27
  0.157886 20  1CEFFA03x       Rx   d 8 AD 09 10 27 20 4E 20 4E
  0.158398 24  1CEFFA03x       Rx   d 8 AD 09 10 27 20 4E 20 4E
  0.158427 24  1CEFFA03x       Rx   d 8 AD 0A 20 4E 20 4E 20 4E
  0.158444 24  1CEFFA03x       Rx   d 8 AD 0B 20 4E 20 4E 20 4E
  0.158468 24  1CEFFA03x       Rx   d 8 AD 0D 00 00 3C 02 00 00
  0.158502 22  10FFFF44x       Rx   d 8 F6 FF 00 00 F0 00 F8 05
  0.159050 20  1CEFFA03x       Rx   d 8 AD 0A 20 4E 20 4E 20 4E
  0.159074 20  0CFFF331x       Rx   d 8 31 8A 24 FF FF FF FF F8
  0.159081 20  1CEFFA03x       Rx   d 8 AD 0B 20 4E 20 4E 20 4E
  0.159086 20  1CEFFA03x       Rx   d 8 AD 0D 00 00 3C 02 00 00
  0.159615 24  1CEFFA03x       Rx   d 8 AD 0E 00 00 67 00 81 00
  0.160287 20  1CEFFA03x       Rx   d 8 AD 0E 00 00 67 00 81 00
  0.160309 20  0CFF18EBx       Rx   d 8 C0 11 00 06 40 07 07 20
  0.160743 22  198BF46Cx       Rx   d 8 64 90 00 00 00 00 00 00
  0.160766 22  18FFFEF4x       Rx   d 8 37 FF FF FF FF EF FF FF
  0.160772 22  198BF46Cx       Rx   d 8 64 91 B4 00 FF FF FF FF
  0.160779 22  198C70F4x       Rx   d 8 64 81 00 03 FF FF FF FF
  0.160774 26  18FFFE8Cx       Rx   d 8 63 FF FF FC FF FF FF FF
  0.160793 26  18FFFF8Cx       Rx   d 8 06 FF FF FF FF FF FF 3F
  0.160799 26  0CFFF38Cx       Rx   d 8 31 8A 24 FF FF FF FF F8
  0.160804 26  18EFFF4Fx       Rx   d 8 F4 19 00 FF FF FF FF FF
  0.160925 23  18FFFEF3x       Rx   d 8 37 FF FF FF FF EF FF FF
  0.161917 22  198C6CF4x       Rx   d 8 64 81 00 03 FF FF FF FF
  0.161917 26  18FFF88Cx       Rx   d 8 28 00 FF FF FF FF FF FF
  0.161942 26  18FFF88Cx       Rx   d 8 79 FF FE 17 00 84 64 00
  0.161944 20  0CF0035Bx       Rx   d 8 FF FF 0A FF FF FF FF FF
  0.161954 26  1CFFF84Fx       Rx   d 8 85 00 00 FF FF FF FF FC
  0.161969 20  18EFFF5Bx       Rx   d 8 F1 2A FF FE FF FE FF FF
  0.161975 26  18EFFF8Cx       Rx   d 8 F4 31 88 88 88 88 88 88
  0.161979 20  18FFFA5Bx       Rx   d 8 06 01 84 03 9F 01 F0 FF
  0.163012 26  18FFFE8Cx       Rx   d 8 FD FB FB FB FB FF FF FF
  0.163732 20  1CE726EAx       Rx   d 8 A8 72 04 FF 95 5E 00 00
  0.164511 26  0CF00432x       Rx   d 8 FF FF FF 82 25 FF FF FF
  0.164950 24  1CEFFA03x       Rx   d 8 AD 09 10 27 20 4E 20 4E
  0.164950 27  0CC49823x       Rx   d 8 00 FF F0 FF FF FF FF FF
  0.164980 23  18A6004Dx       Rx   d 8 00 00 00 00 00 00 00 00
  0.165005 24  1CEFFA03x       Rx   d 8 AD 0B 20 4E 20 4E 20 4E
  0.165020 24  0CF00400x       Rx   d 8 F0 FF 87 82 25 FF F4 FF
  0.165261 20  1CEFFA03x       Rx   d 8 AD 09 10 27 20 4E 20 4E
  0.165278 20  18FFFF26x       Rx   d 8 18 00 00 FF FF FF FF FF
  0.165291 20  1CEFFA03x       Rx   d 8 AD 0B 20 4E 20 4E 20 4E
  0.165303 20  18FFFF26x       Rx   d 8 18 00 00 FF FF FF FF FF
  0.166307 23  18FFFDF3x       Rx   d 8 00 03 03 01 0F 05 0A 02
  0.166466 20  0CFF18EBx       Rx   d 8 C0 0C 00 01 40 07 01 20
  0.166483 20  0CF61EEBx       Rx   d 8 FF 03 40 FF C3 FF F4 80
  0.166499 20  0CF61FEBx       Rx   d 8 FF 04 40 FF C3 FF F4 40
  0.166521 20  0CF620EBx       Rx   d 8 FF 01 80 FF C3 FF F4 E0
  0.166932 22  198BF470x       Rx   d 8 64 10 76 0B 4F 0B 83 13
  0.167593 20  0CF0045Bx       Rx   d 8 FF FF 88 86 25 FF F4 FF
  0.167609 20  0CF621EBx       Rx   d 8 FF 02 80 FF C3 FF F4 00
  0.167615 20  18FEF25Bx       Rx   d 8 CB 00 FF FF FF FF FF FF
  0.167620 20  0CF622EBx       Rx   d 8 FF 07 40 FF 00 00 F4 B0
  0.168807 20  18FFFB26x       Rx   d 8 F9 01 00 FF FF FF FF FF
  0.168828 20  0CF623EBx       Rx   d 8 FF 01 40 FF 3F FF F4 A0
  0.168845 20  18EFFF26x       Rx   d 8 09 00 00 00 00 00 FF FF
  0.168871 20  0CF624EBx       Rx   d 8 FF 02 40 FF 3F FF F4 40
  0.169448 22  10FFFF43x       Rx   d 8 F6 FF 00 00 F2 00 6B 0C
  0.170012 20  18FFF426x       Rx   d 8 29 FF 00 FF FF FF FF FF
  0.170035 20  0CF625EBx       Rx   d 8 FF 05 40 FF 3F FF F4 80
  0.170042 20  18FFFB26x       Rx   d 8 F9 01 00 00 00 FF FF FF
  0.170047 20  0CF626EBx       Rx   d 8 FF 06 40 FF 3F FF F4 60
  0.170651 22  198BF46Cx       Rx   d 8 64 10 4C 08 7A 07 8D 13
  0.171221 20  0CF627EBx       Rx   d 8 FF 03 80 FF 3F FF F4 C0
  0.171243 20  0CF628EBx       Rx   d 8 FF 04 80 FF 3F FF F4 00
  0.171257 26  18EFFF4Fx       Rx   d 8 F1 07 CC CC 00 00 00 00
  0.171284 26  18EFFF4Fx       Rx   d 8 F0 02 CC 00 30 F0 FF FF
  0.172060 24  04EF0006x       Rx   d 8 64 15 1C F0 00 40 C0 12
  0.173317 20  1CE6EA26x       Rx   d 8 A8 72 04 00 95 5E 00 00
  0.173586 26  1CE6EA26x       Rx   d 8 A8 72 04 00 95 5E 00 00
  0.174660 22  10FFFF42x       Rx   d 8 F6 FF 00 00 F2 00 A8 05
  0.174971 24  1CEFFA03x       Rx   d 8 AD 09 10 27 20 4E 20 4E
  0.174971 27  0CC49823x       Rx   d 8 00 FF F0 FF FF FF FF FF
  0.175003 23  18FF024Dx       Rx   d 8 00 00 00 FF FF FF FF FF
  0.175025 24  1CEFFA03x       Rx   d 8 AD 0B 20 4E 20 4E 20 4E
  0.175037 24  18EF0600x       Rx   d 8 64 0E 46 00 FF FF FF FF
  0.175324 20  1CEFFA03x       Rx   d 8 AD 09 10 27 20 4E 20 4E
  0.175346 20  1CEFFA03x       Rx   d 8 AD 0B 20 4E 20 4E 20 4E
  0.175352 20  1C8BDAEBx       Rx   d 8 00 00 00 00 00 00 00 00
  0.176164 23  18FFFDF3x       Rx   d 8 00 03 04 01 0F 05 0A 02
  0.176208 24  0CEFFF00x       Rx   d 8 64 06 8A 7D 59 66 1D 00
  0.176229 24  0CF00300x       Rx   d 8 FF FE 0A FF FF FF 59 FF
  0.176240 24  0CF00400x       Rx   d 8 F0 FF 87 7E 25 FF F4 FF
  0.176250 24  18EFFF00x       Rx   d 8 F8 21 04 00 00 00 00 00
  0.176524 20  1C8BDAEBx       Rx   d 8 01 00 00 00 00 00 00 00
  0.176552 20  1C8BDAEBx       Rx   d 8 02 00 00 00 00 00 00 00
  0.176559 20  1C8BDAEBx       Rx   d 8 03 00 00 00 00 00 00 00
  0.176570 20  1C8BDAEBx       Rx   d 8 04 00 00 00 00 00 00 00
  0.177366 24  18FEF500x       Rx   d 8 C0 FF FF D8 1E 0E FF FF
  0.177727 20  1C8BDAEBx       Rx   d 8 05 00 44 21 E0 00 3E E8
  0.177748 20  18EFFF5Bx       Rx   d 8 F4 16 F0 FF FF FF FF FF
  0.177754 20  18FEF65Bx       Rx   d 8 FF 0B FF FF 07 FF FF FF
  0.177760 20  1C8BDAEBx       Rx   d 8 06 F5 C3 3E EB 02 0C 40
  0.177765 20  1C8BDAEBx       Rx   d 8 07 81 68 0E 43 48 00 00
  0.179030 20  1C8BDAEBx       Rx   d 8 08 3E FA CD 6A 00 00 00
  0.179055 20  1C8BDAEBx       Rx   d 8 09 00 42 A0 00 00 3E EE
  0.179062 20  1C8BDAEBx       Rx   d 8 0A 00 F3 00 00 00 00 00
  0.179067 20  1C8BDAEBx       Rx   d 8 0B 00 01 C7 00 01 0A 01
  0.180072 25  0CFFF3F0x       Rx   d 8 31 FF FF FF FF FF FF F8
  0.180210 20  1C8BDAEBx       Rx   d 8 0C 00 0A 01 00 0A 00 00
  0.181956 24  18EFFFF2x       Rx   d 8 F8 20 F2 FF FF FF FF FF
  0.181981 24  18FFFBF2x       Rx   d 8 F9 01 00 00 00 FF FF FF
  0.181987 20  18EFFF5Bx       Rx   d 8 F1 2A FF FE FF FE FF FF
  0.182005 20  18FFFA5Bx       Rx   d 8 06 01 84 03 9E 01 F0 FF
  0.184344 3  0CFFFFF0x       Rx   d 8 DE FF 31 00 D3 FF FF FF
  0.184533 20  18EFFF31x       Rx   d 8 64 6A 00 00 00 00 00 37
  0.184564 20  1CEFFA03x       Rx   d 8 AD 01 00 0A 01 0A 12 9F
  0.184562 26  0CF00432x       Rx   d 8 FF FF FF 86 25 FF FF FF
  0.184994 24  1CEFFA03x       Rx   d 8 AD 01 00 0A 01 0A 12 9F
  0.184994 27  0CC49823x       Rx   d 8 00 FF F0 FF FF FF FF FF
  0.185019 24  1CEFFA03x       Rx   d 8 AD 09 10 27 20 4E 20 4E
  0.185025 24  1CEFFA03x       Rx   d 8 AD 0B 20 4E 20 4E 20 4E
  0.185030 24  0CF00400x       Rx   d 8 F0 FF 88 80 25 FF F4 FF
  0.185591 22  198BF46Cx       Rx   d 8 64 90 56 00 58 00 00 00
  0.185683 22  198BF46Cx       Rx   d 8 64 91 56 00 FF FF FF FF
  0.185697 22  198C70F4x       Rx   d 8 64 80 00 03 00 03 00 03
  0.185723 20  1CEFFA03x       Rx   d 8 AD 09 10 27 20 4E 20 4E
  0.185755 20  1CEFFA03x       Rx   d 8 AD 0B 20 4E 20 4E 20 4E
  0.186298 23  18FFFDF3x       Rx   d 8 00 02 02 0A 00 02 19 23
  0.186339 24  0CFD9200x       Rx   d 8 F4 FF FF FF FF FF FF FF
  0.186364 24  18F02300x       Rx   d 8 00 00 F2 FF FF 02 FF FF
  0.186688 22  198C6CF4x       Rx   d 8 64 80 00 03 00 03 00 03
  0.187448 20  18FEF55Bx       Rx   d 8 C0 FF FF FF FF 0E FF FF
  0.187473 20  0CF0045Bx       Rx   d 8 FF FF 87 7E 25 FF F4 FF
  0.188192 24  18EF00FAx       Rx   d 8 53 E7 5B 05 04 FF FF FF
  0.189827 26  0CFF1BE5x       Rx   d 8 27 22 DF 00 00 B3 00 00
  0.190069 20  18FFF426x       Rx   d 8 02 18 FC 18 FC FF FF FF
  0.190094 20  18FF1B31x       Rx   d 8 27 22 DF 00 00 B3 00 00
  0.190100 20  18FFF426x       Rx   d 8 03 18 FC 18 FC FF FF FF
  0.190102 25  18EFFFF0x       Rx   d 8 64 6A 00 00 00 00 00 37
  0.190597 24  18FF1BF2x       Rx   d 8 27 22 DF 00 00 B3 00 00
  0.190617 24  18EFFA00x       Rx   d 8 A5 E7 5B 05 FF FF FF FF
  0.190800 22  18FFFDF4x       Rx   d 8 00 02 01 0A 00 02 19 23
  0.190822 22  198C70F4x       Rx   d 8 64 81 00 03 FF FF FF FF
  0.190827 22  18FFFDF4x       Rx   d 8 00 03 01 01 0F 05 0A 02
  0.190832 22  198C6CF4x       Rx   d 8 64 81 00 03 FF FF FF FF
  0.191257 20  18EFFA00x       Rx   d 8 A5 E7 5B 05 FF FF FF FF
  0.191895 24  18EFFFF2x       Rx   d 8 64 58 F0 F4 80 01 8A 24
  0.191911 24  04EF0006x       Rx   d 8 64 15 1D F0 00 40 C0 12
  0.194271 20  18EFFF31x       Rx   d 8 F8 20 F2 FF FF FF FF FF
  0.194895 27  0CC49823x       Rx   d 8 00 FF F0 FF FF FF FF FF
  0.194950 24  1CEFFA03x       Rx   d 8 AD 02 88 13 88 13 88 13
  0.194969 24  08EFFF03x       Rx   d 8 64 61 41 2F 1F 0F FF FF
  0.194986 24  1CEFFA03x       Rx   d 8 AD 03 00 00 00 F9 8E 00
  0.195004 24  1CEFFA03x       Rx   d 8 AD 04 81 00 72 00 3B 02
  0.195467 20  1CEFFA03x       Rx   d 8 AD 02 88 13 88 13 88 13
  0.195488 20  1CEFFA03x       Rx   d 8 AD 03 00 00 00 F9 8E 00
  0.195493 20  1C8BDAEBx       Rx   d 8 00 00 00 00 00 00 00 00
  0.195499 20  18EFFFEBx       Rx   d 8 64 95 41 04 F3 FF FF FF
  0.195784 29  09FD0280x       Rx   d 8 24 7B 00 D2 E2 FA FF FF
  0.196116 24  0CEFFF00x       Rx   d 8 64 06 8F 7D 59 66 1D 00
  0.196147 11  09FD0280x       Rx   d 8 24 7B 00 D2 E2 FA FF FF
  0.196162 24  0CF00300x       Rx   d 8 FF FE 0A FF FF FF 59 FF
  0.196164 11  18EFFFF3x       Rx   d 8 F8 0B FF FF FF FF F0 FF
  0.196168 24  0CF00400x       Rx   d 8 F0 FF 88 84 25 FF F4 FF
  0.196173 24  18EFFF00x       Rx   d 8 64 10 05 05 B1 18 80 BC
  0.196182 23  18FFFDF3x       Rx   d 8 00 02 03 0A 00 02 19 23
  0.196193 23  18EFFFF3x       Rx   d 8 F8 0B FF FF FF FF F0 FF
  0.196774 20  1C8BDAEBx       Rx   d 8 01 00 00 00 00 00 00 00
  0.196795 20  18EFFFEBx       Rx   d 8 F8 0B 00 00 93 FF F0 00
  0.196801 20  1CEFFA03x       Rx   d 8 AD 04 81 00 72 00 3B 02
  0.196806 20  18F0235Bx       Rx   d 8 00 00 00 00 00 00 00 00
  0.197214 24  1CEFFA03x       Rx   d 8 AD 06 7A 0C C7 0C 9A A5
  0.197235 24  1CEFFA03x       Rx   d 8 AD 07 02 01 22 00 C6 50
  0.197240 24  1CEFFA03x       Rx   d 8 AD 08 1E 09 91 04 10 27
  0.197253 24  1CEFFA03x       Rx   d 8 AD 09 10 27 20 4E 20 4E
  0.197973 20  1CEFFA03x       Rx   d 8 AD 06 7A 0C C7 0C 9A A5
  0.197994 20  18FEF65Bx       Rx   d 8 FF 0B FF FF 07 FF FF FF
  0.198000 20  1CEFFA03x       Rx   d 8 AD 07 02 01 22 00 C6 50
  0.198005 20  1CEFFA03x       Rx   d 8 AD 08 1E 09 91 04 10 27
  0.198418 24  1CEFFA03x       Rx   d 8 AD 0A 20 4E 20 4E 20 4E
  0.198437 24  1CEFFA03x       Rx   d 8 AD 0B 20 4E 20 4E 20 4E
  0.198442 24  1CEFFA03x       Rx   d 8 AD 0D 00 00 3C 02 00 00
  0.198447 24  1CEFFA03x       Rx   d 8 AD 0E 00 00 64 00 81 00
  0.199177 20  1CEFFA03x       Rx   d 8 AD 09 10 27 20 4E 20 4E
  0.199198 20  0CFFF331x       Rx   d 8 31 8A 24 FF FF FF FF F8
  0.199204 20  1CEFFA03x       Rx   d 8 AD 0A 20 4E 20 4E 20 4E
  0.199209 20  1CEFFA03x       Rx   d 8 AD 0B 20 4E 20 4E 20 4E
  0.199215 20  1CEFFA03x       Rx   d 8 AD 0D 00 00 3C 02 00 00
  0.200050 25  18FFF4F0x       Rx   d 8 64 00 00 00 00 00 01 00
  0.200073 25  18EFFFF0x       Rx   d 8 64 48 FF FF FF FD FF FF
  0.200378 20  1CEFFA03x       Rx   d 8 AD 0E 00 00 64 00 81 00
  0.200752 26  0CFFF38Cx       Rx   d 8 31 8D 24 FF FF FF FF F8
  0.200781 26  18FFF88Cx       Rx   d 8 79 FF FE 17 00 84 64 00
  0.201251 25  18EFFFF0x       Rx   d 8 F1 07 CC FC FF 00 FF CC
  0.201275 25  18FFFEF0x       Rx   d 8 FD FB FB FF FF FF FF FF
  0.201824 24  18FFFEF2x       Rx   d 8 05 FC FF FF FF FF FF FF
  0.201843 24  0CADFFF2x       Rx   d 8 FF FF 00 00 00 00 00 00
  0.201919 24  18FFFBF2x       Rx   d 8 FB 0F 00 00 05 05 FF 42
  0.201935 24  18FFF4F2x       Rx   d 8 64 0A 51 50 00 4F 01 00
  0.201962 20  18EFFF5Bx       Rx   d 8 F1 2A FF FE FF FE FF FF
  0.201986 20  18FFFA5Bx       Rx   d 8 06 01 84 03 9F 01 F0 FF
  0.203015 24  18FFF4F2x       Rx   d 8 5E 05 00 00 00 67 00 00
  0.203618 27  0CC62398x       Rx   d 8 7D 7D 00 FF FF FF FF FF
  0.204459 26  0CF00432x       Rx   d 8 FF FF FF 7E 25 FF FF FF
  0.204942 24  1CEFFA03x       Rx   d 8 AD 09 10 27 20 4E 20 4E
  0.204942 27  0CC49823x       Rx   d 8 00 FF F0 FF FF FF FF FF
  0.204982 24  1CEFFA03x       Rx   d 8 AD 0B 20 4E 20 4E 20 4E
  0.205290 20  1CEFFA03x       Rx   d 8 AD 09 10 27 20 4E 20 4E
  0.205313 20  1CEFFA03x       Rx   d 8 AD 0B 20 4E 20 4E 20 4E
  0.206133 24  0CF00400x       Rx   d 8 F0 FF 87 86 25 FF F4 FF
  0.206341 22  0CEF41F4x       Rx   d 8 64 30 F0 FA 5C 04 FF FF
  0.206362 22  18EF41F4x       Rx   d 8 64 31 00 00 60 04 32 32
  0.206368 22  0CEF43F4x       Rx   d 8 64 30 F0 FA 6B 0C FF FF
  0.206372 22  18EF43F4x       Rx   d 8 64 31 00 00 6D 0C 0F 0F
  0.207293 20  0CF0045Bx       Rx   d 8 FF FF 88 84 25 FF F4 FF
  0.207415 22  0CEF44F4x       Rx   d 8 64 30 F0 FA 00 00 FF FF
  0.207434 22  18EF44F4x       Rx   d 8 64 31 32 00 9E 07 32 32
  0.207439 22  0CEF47F4x       Rx   d 8 64 30 F0 FA 00 00 FF FF
  0.207444 22  18EF47F4x       Rx   d 8 64 31 6A 01 25 19 32 32
  0.208552 22  0CEF45F4x       Rx   d 8 64 30 F0 FA 00 00 FF FF
  0.208571 22  18EF45F4x       Rx   d 8 64 31 32 00 9E 07 32 32
  0.208576 22  0CEF42F4x       Rx   d 8 64 30 F0 FA A8 05 FF FF
  0.208581 22  18EF42F4x       Rx   d 8 64 31 32 00 AA 05 32 32
  0.208999 20  18FFFA26x       Rx   d 8 07 05 34 08 EA 01 FF F3
  0.209643 22  18EF41F4x       Rx   d 8 64 32 0A 3C 78 14 FF FF
  0.209662 22  18EF43F4x       Rx   d 8 64 32 0A 78 78 14 FF FF
  0.209667 22  18EF44F4x       Rx   d 8 64 32 0A 28 28 14 FF FF
  0.209672 22  18EF47F4x       Rx   d 8 64 32 0A 78 78 14 FF FF
  0.210202 20  18EFFA26x       Rx   d 8 AD 20 05 F0 E7 4B 4B B5
  0.210223 20  18EFFA26x       Rx   d 8 AD 21 E7 4B 4B B5 02 00
  0.210850 22  198BF46Cx       Rx   d 8 64 90 00 00 00 00 00 00
  0.210871 22  18EF45F4x       Rx   d 8 64 32 0A 28 28 14 FF FF
  0.210876 22  198BF46Cx       Rx   d 8 64 91 00 00 FF FF FF FF
  0.210881 22  18EF42F4x       Rx   d 8 64 32 0A 3C 78 14 FF FF
  0.211405 20  0CFFFE17x       Rx   d 8 48 FF FF FF FF FF FF FF
  0.211426 20  0CF0035Bx       Rx   d 8 FF FF 0A FF FF FF FF FF
  0.211433 20  18FFFA5Bx       Rx   d 8 06 01 84 03 A0 01 F0 FF
  0.211947 22  18FFFBF4x       Rx   d 8 F2 26 7F FF FF FF FF FF
  0.211991 24  04EF0006x       Rx   d 8 64 15 1E F0 00 40 C0 12
  0.213019 20  18FFF826x       Rx   d 8 C3 FF FF FF FF FF FF FF
  0.214326 20  18FFFE31x       Rx   d 8 05 FC FF FF FF FF FF FF
  0.214352 20  18FFFF31x       Rx   d 8 87 FF 00 FF FF FF FF FF
  0.214353 30  18EFFF33x       Rx   d 8 F4 31 88 88 8F FF FF 88
  0.214353 26  18EFFF32x       Rx   d 8 F8 A0 00 00 F0 FF FF FF
  0.214362 20  0CFFEC31x       Rx   d 8 FF FF FF FF FF FF FF 3F
  0.214377 30  0CFFFE33x       Rx   d 8 8E FF FF FF FF FF FF FF
  0.214370 20  18EFFF31x       Rx   d 8 F4 19 00 FF FF FF FF FF
  0.214965 24  08FEF103x       Rx   d 8 FF 00 00 CF FF FF FF FF
  0.214965 27  0CC49823x       Rx   d 8 00 FF F0 FF FF FF FF FF
  0.214994 24  1CEFFA03x       Rx   d 8 AD 05 9F 00 00 00 00 00
  0.214999 24  1CEFFA03x       Rx   d 8 AD 09 10 27 20 4E 20 4E
  0.215005 24  1CEFFA03x       Rx   d 8 AD 0B 20 4E 20 4E 20 4E
  0.215516 20  18EFFF31x       Rx   d 8 F1 07 CC CC 00 00 00 00
  0.215539 20  18FFF831x       Rx   d 8 85 00 00 FF FF FF FF FC
  0.215546 20  18FFFE31x       Rx   d 8 FD FB FB FB FB FF FF FF
  0.215551 20  1C8BDAEBx       Rx   d 8 00 00 00 00 00 00 00 00
  0.216058 24  0CEFFF00x       Rx   d 8 64 06 8B 7D 59 66 1D 00
  0.216081 24  0CF00300x       Rx   d 8 FF FE 0A FF FF FF 59 FF
  0.216087 24  0CF00400x       Rx   d 8 F0 FF 87 82 25 FF F4 FF
  0.216091 24  18FE6900x       Rx   d 8 FA 20 8C 28 FF FF EE 1F
  0.216459 22  198C70F4x       Rx   d 8 64 80 00 03 00 03 00 03
  0.216477 22  198C6CF4x       Rx   d 8 64 80 00 03 00 03 00 03
  0.216717 20  0CFF18EBx       Rx   d 8 C0 17 00 02 40 07 02 70
  0.216739 20  18EFFF31x       Rx   d 8 F2 0D FF FF FF FF FF FF
  0.216745 20  0CF61EEBx       Rx   d 8 FF 03 40 FF C3 FF F5 70
  0.216751 20  1C8BDAEBx       Rx   d 8 01 00 00 00 00 00 00 00
  0.217920 20  0CF61FEBx       Rx   d 8 FF 04 40 FF C3 FF F5 B0
  0.217942 20  18FEF65Bx       Rx   d 8 FF 0B FF FF 07 FF FF FF
  0.217955 20  0CF620EBx       Rx   d 8 FF 01 80 FF C3 FF F5 10
  0.217974 20  18FFF826x       Rx   d 8 C4 FF FF FF FF FF FF FF
  0.217993 20  0CF621EBx       Rx   d 8 FF 02 80 FF C3 FF F5 F0
  0.219235 20  18FFF826x       Rx   d 8 C2 FF FF FF FF FF FF FF
  0.219260 20  0CF622EBx       Rx   d 8 FF 07 40 FF 00 00 F5 40
  0.219267 20  18FFF826x       Rx   d 8 C5 FF FF FF FF FF FF FF
  0.219272 20  0CF623EBx       Rx   d 8 FF 01 40 FF 3F FF F5 50
  0.219266 24  18FFF413x       Rx   d 8 5F A0 60 01 00 00 00 00
  0.219284 24  18FFF413x       Rx   d 8 63 00 00 00 10 01 00 00
  0.219302 24  0CACFF13x       Rx   d 8 72 7D 30 20 00 00 00 00
  0.219307 24  18FFF8C5x       Rx   d 8 9B 00 7D 00 64 80 F0 FF
  0.220103 25  0CFFF3F0x       Rx   d 8 31 FF FF FF FF FF FF F8
  0.220426 20  18FFF826x       Rx   d 8 C6 FF FF FF FF FF FF FF
  0.220446 20  0CF624EBx       Rx   d 8 FF 02 40 FF 3F FF F5 B0
  0.220452 20  18FFF826x       Rx   d 8 C7 FF FF FF FF FF FF FF
  0.220457 20  0CF625EBx       Rx   d 8 FF 05 40 FF 3F FF F5 70
  0.220969 22  198C70F4x       Rx   d 8 64 81 00 03 FF FF FF FF
  0.220990 22  198C6CF4x       Rx   d 8 64 81 00 03 FF FF FF FF
  0.221629 20  18FFFAEAx       Rx   d 8 07 09 FF FF FF FF FF FF
  0.221651 20  0CF626EBx       Rx   d 8 FF 06 40 FF 3F FF F5 90
  0.221657 20  18EFFF5Bx       Rx   d 8 F1 2A FF FE FF FE FF FF
  0.221662 20  0CF627EBx       Rx   d 8 FF 03 80 FF 3F FF F5 30
  0.221667 20  18EFFFEAx       Rx   d 8 64 57 F2 F8 2A FF FF FF
  0.221970 24  18EFFFF2x       Rx   d 8 F8 20 F2 FF FF FF FF FF
  0.221991 24  18EF00FAx       Rx   d 8 53 E8 5B 05 04 FF FF FF
  0.222931 20  0CF628EBx       Rx   d 8 FF 04 80 FF 3F FF F5 F0
  0.222957 20  18FFF8EAx       Rx   d 8 9B FF FF FF FF FF FF FF
  0.222963 20  1CEFFA03x       Rx   d 8 AD 05 9F 00 00 00 00 00
  0.222968 20  18FFF4EAx       Rx   d 8 65 FF FF FF 0F FC FF FF
  0.224134 20  1CEFFA03x       Rx   d 8 AD 09 10 27 20 4E 20 4E
  0.224155 20  18FFFAEAx       Rx   d 8 07 10 FF FF FF FF FF FF
  0.224161 20  1CEFFA03x       Rx   d 8 AD 0B 20 4E 20 4E 20 4E
  0.224166 20  1CFFFE17x       Rx   d 8 A7 50 03 00 00 00 00 00
  0.224502 26  0CF00432x       Rx   d 8 FF FF FF 84 25 FF FF FF
  0.224986 24  1CEFFA03x       Rx   d 8 AD 09 10 27 20 4E 20 4E
  0.224986 27  0CC49823x       Rx   d 8 00 FF F0 FF FF FF FF FF
  0.225017 24  1CEFFA03x       Rx   d 8 AD 0B 20 4E 20 4E 20 4E
  0.225023 24  18EFFA00x       Rx   d 8 A5 E8 5B 05 FF FF FF FF
  0.225337 20  18FECA26x       Rx   d 8 00 FF 8C E6 E2 01 FF FF
  0.225358 20  1CEFFA03x       Rx   d 8 AD 09 10 27 20 4E 20 4E
  0.225364 20  1CEFFA03x       Rx   d 8 AD 0B 20 4E 20 4E 20 4E
  0.225387 20  18EFFA00x       Rx   d 8 A5 E8 5B 05 FF FF FF FF
  0.225399 20  1C8BDAEBx       Rx   d 8 02 00 00 00 00 00 00 00
  0.226079 24  0CF00400x       Rx   d 8 F0 FF 87 7E 25 FF F4 FF
  0.226382 23  18EFFFF3x       Rx   d 8 64 72 FF 0F FF FF FF FF
  0.226403 23  0CEF42F3x       Rx   d 8 64 30 F0 96 D5 07 FF FF
  0.226408 23  18A74DF3x       Rx   d 8 FF FF FF FF FF FF FF FF
  0.226413 23  0CEF47F3x       Rx   d 8 64 30 F0 FA 00 00 FF FF
  0.226650 20  1C8BDAEBx       Rx   d 8 03 00 00 00 00 00 00 00
  0.226673 20  08FEF15Bx       Rx   d 8 FF 00 00 CF FF FF FF FF
  0.226682 11  18EFFFF3x       Rx   d 8 64 72 FF 0F FF FF FF FF
  0.226703 11  0CEF42F3x       Rx   d 8 64 30 F0 96 D5 07 FF FF
  0.226708 11  0CEF47F3x       Rx   d 8 64 30 F0 FA 00 00 FF FF
  0.227485 23  18EFFFF3x       Rx   d 8 64 46 00 00 FF FF FF FF
  0.227507 23  0CEF43F3x       Rx   d 8 64 30 F0 FA 00 00 FF FF
  0.227513 23  18EF42F3x       Rx   d 8 64 31 3C 00 18 0B 0F 0F
  0.227518 23  0CEF45F3x       Rx   d 8 64 30 F0 FA 00 00 FF FF
  0.227857 20  0CF0045Bx       Rx   d 8 FF FF 87 82 25 FF F4 FF
  0.227883 11  18EFFFF3x       Rx   d 8 64 46 00 00 FF FF FF FF
  0.227885 20  18FE695Bx       Rx   d 8 FF FF FF FF FF FF EE 1F
  0.227912 11  0CEF43F3x       Rx   d 8 64 30 F0 FA 00 00 FF FF
  0.227910 20  18FFFA5Bx       Rx   d 8 06 01 84 03 9F 01 F0 FF
  0.227941 11  18EF42F3x       Rx   d 8 64 31 3C 00 18 0B 0F 0F
  0.227943 20  1CE7265Bx       Rx   d 8 FF 00 05 FF FF FF FF FF
  0.227952 11  0CEF45F3x       Rx   d 8 64 30 F0 FA 00 00 FF FF
  0.228555 23  18EF47F3x       Rx   d 8 64 31 02 00 F1 07 32 32
  0.228576 23  18EF43F3x       Rx   d 8 64 31 00 00 3E 03 32 32
  0.228587 23  18EF45F3x       Rx   d 8 64 31 6A 01 25 19 32 32
  0.228600 23  18EF42F3x       Rx   d 8 64 32 0A 78 78 14 FF FF
  0.228679 26  18FFFA19x       Rx   d 8 02 98 12 45 1D 04 FF FF
  0.228878 11  18EF47F3x       Rx   d 8 64 31 02 00 F1 07 32 32
  0.228895 11  18EF43F3x       Rx   d 8 64 31 00 00 3E 03 32 32
  0.228900 11  18EF45F3x       Rx   d 8 64 31 6A 01 25 19 32 32
  0.228904 11  18EF42F3x       Rx   d 8 64 32 0A 78 78 14 FF FF
  0.228985 20  18EFFF5Bx       Rx   d 8 64 53 17 01 C0 01 04 FF
  0.229716 23  18EF47F3x       Rx   d 8 64 32 0A 78 78 14 FF FF
  0.229738 23  18EF43F3x       Rx   d 8 64 32 0A 78 78 14 FF FF
  0.229744 23  18EF45F3x       Rx   d 8 64 32 0A 78 78 14 FF FF
  0.229749 23  18FFFBF3x       Rx   d 8 F2 26 7F FF FF FF FF FF
  0.229979 11  18EF47F3x       Rx   d 8 64 32 0A 78 78 14 FF FF
  0.229992 11  18EF43F3x       Rx   d 8 64 32 0A 78 78 14 FF FF
  0.229997 11  18EF45F3x       Rx   d 8 64 32 0A 78 78 14 FF FF
  0.230002 11  18FFFBF3x       Rx   d 8 F2 26 7F FF FF FF FF FF
  0.230877 22  08FEF1F4x       Rx   d 8 FF 00 00 FF FF FF FF FF
  0.230920 23  08FEF1F3x       Rx   d 8 FF 00 00 FF FF FF FF FF
  0.230942 23  18EFFFF3x       Rx   d 8 64 53 FF FF FF 01 FF FF
  0.231491 11  18EFFFF3x       Rx   d 8 64 53 FF FF FF 01 FF FF
  0.231865 20  0CACFF5Bx       Rx   d 8 72 7D 3C 3F C0 FF FF FF
  0.231894 24  18EFFFF2x       Rx   d 8 64 53 FF FF FF FF 04 FF
  0.231919 24  04EF0006x       Rx   d 8 64 15 1F F0 00 40 C0 12
  0.231929 24  0CFFF606x       Rx   d 8 FF FF FF FF FF 00 00 FF
  0.234471 20  18EFFF31x       Rx   d 8 F8 20 F2 FF FF FF FF FF
  0.234497 20  1CEFFA03x       Rx   d 8 AD 01 00 0A 01 0A 12 9F
  0.234493 30  08FEF133x       Rx   d 8 FF 00 00 FF FF FF FF FF
  0.234498 26  08FEF132x       Rx   d 8 FF 00 00 CF FF FF FF FF
  0.234901 24  1CEFFA03x       Rx   d 8 AD 01 00 0A 01 0A 12 9F
  0.234921 24  08EFFF03x       Rx   d 8 64 61 40 2F 1F 0F FF FF
  0.234942 27  0CC49823x       Rx   d 8 00 FF F0 FF FF FF FF FF
  0.234941 24  1CEFFA03x       Rx   d 8 AD 02 88 13 88 13 88 13
  0.234965 24  1CEFFA03x       Rx   d 8 AD 03 00 00 00 F9 8E 00
  0.235229 25  08FEF1F0x       Rx   d 8 FF 00 00 FF FF FF FF FF
  0.235599 22  198BF46Cx       Rx   d 8 64 90 00 00 00 00 56 00
  0.235619 22  198BF46Cx       Rx   d 8 64 91 00 00 FF FF FF FF
  0.235861 20  1CEFFA03x       Rx   d 8 AD 02 88 13 88 13 88 13
  0.235886 20  1C8BDAEBx       Rx   d 8 00 00 00 00 00 00 00 00
  0.235892 20  1CEFFA03x       Rx   d 8 AD 03 00 00 00 F9 8E 00
  0.235897 20  1C8BDAEBx       Rx   d 8 01 00 00 00 00 00 00 00
  0.236103 24  0CEFFF00x       Rx   d 8 64 06 8C 7D 59 66 1D 00
  0.236122 24  0CF00300x       Rx   d 8 FF FE 0A FF FF FF 59 FF
  0.236128 24  0CF00400x       Rx   d 8 F0 FF 87 82 25 FF F4 FF
  0.236132 24  18F02300x       Rx   d 8 00 00 F2 FF FF 02 FF FF
  0.237207 24  1CEFFA03x       Rx   d 8 AD 04 81 00 72 00 3C 02
  0.237226 24  1CEFFA03x       Rx   d 8 AD 06 7A 0C E1 0C 93 A5
  0.237232 24  18EFFFF2x       Rx   d 8 64 58 F0 F4 80 01 8A 24
  0.237237 24  1CEFFA03x       Rx   d 8 AD 07 02 01 19 00 DA 50
  0.237579 20  1CEFFA03x       Rx   d 8 AD 04 81 00 72 00 3C 02
  0.237603 20  18FEF65Bx       Rx   d 8 FF FE FF FF FE FF FF FF
  0.237608 22  18FFF4B1x       Rx   d 8 07 00 00 00 00 FF FF FF
  0.237622 20  1CEFFA03x       Rx   d 8 AD 06 7A 0C E1 0C 93 A5
  0.237626 22  18FFF4B1x       Rx   d 8 08 00 00 00 00 FF FF FF
  0.237632 22  18EFFAB1x       Rx   d 8 AD 07 00 00 00 00 FF FF
  0.237631 20  1CEFFA03x       Rx   d 8 AD 07 02 01 19 00 DA 50
  0.237636 22  18EFFAB1x       Rx   d 8 AD 08 00 00 00 00 FF FF
  0.238136 23  18FFF4B2x       Rx   d 8 07 00 00 00 00 FF FF FF
  0.238159 23  18FFF4B2x       Rx   d 8 08 00 00 00 00 FF FF FF
  0.238165 23  18EFFAB2x       Rx   d 8 AD 07 00 00 00 00 FF FF
  0.238169 23  18EFFAB2x       Rx   d 8 AD 08 00 00 00 00 FF FF
  0.238310 24  1CEFFA03x       Rx   d 8 AD 08 1E 09 91 04 10 27
  0.238329 24  1CEFFA03x       Rx   d 8 AD 09 10 27 20 4E 20 4E
  0.238335 24  1CEFFA03x       Rx   d 8 AD 0A 20 4E 20 4E 20 4E
  0.238339 24  1CEFFA03x       Rx   d 8 AD 0B 20 4E 20 4E 20 4E
  0.238768 20  1CEFFA03x       Rx   d 8 AD 08 1E 09 91 04 10 27
  0.238791 20  1CEFFA03x       Rx   d 8 AD 09 10 27 20 4E 20 4E
  0.238798 20  0CFFF331x       Rx   d 8 31 8D 24 FF FF FF FF F8
  0.238803 20  1CEFFA03x       Rx   d 8 AD 0A 20 4E 20 4E 20 4E
  0.239511 24  1CEFFA03x       Rx   d 8 AD 0D 00 00 3C 02 00 00
  0.239530 24  1CEFFA03x       Rx   d 8 AD 0E 00 00 64 00 81 00
  0.239842 26  0CFF1BE5x       Rx   d 8 27 23 DF 00 10 70 00 00
  0.239864 26  0CFFF38Cx       Rx   d 8 31 8D 24 FF FF FF FF F8
  0.239989 20  1CE726FBx       Rx   d 8 FF FF FF FF FF FF FF FF
  0.240013 20  1CEFFA03x       Rx   d 8 AD 0B 20 4E 20 4E 20 4E
  0.240020 20  18FF1B31x       Rx   d 8 27 23 DF 00 10 70 00 00
  0.240025 20  1CEFFA03x       Rx   d 8 AD 0D 00 00 3C 02 00 00
  0.240030 20  1CEFFA03x       Rx   d 8 AD 0E 00 00 64 00 81 00
  0.240690 24  18FF1BF2x       Rx   d 8 27 23 DF 00 10 70 00 00
  0.240890 23  10FFFF43x       Rx   d 8 F6 FF 00 00 F1 00 00 00
  0.240984 26  18FFF88Cx       Rx   d 8 79 FF FE 17 00 84 64 00
  0.241179 11  10FFFF43x       Rx   d 8 F6 FF 00 00 F1 00 00 00
  0.241816 20  18FFF45Bx       Rx   d 8 5F A0 60 01 00 00 00 00
  0.241834 20  0CFFEC5Bx       Rx   d 8 FF FF FF FF FF F0 FF FC
  0.241848 20  18FFFB5Bx       Rx   d 8 FB 0F 00 00 05 05 FF 42
  0.241858 20  18EFFF5Bx       Rx   d 8 64 57 2F FF FF 00 00 FF
  0.243018 20  18EFFF5Bx       Rx   d 8 F1 2A FF FE FF FE FF FF
  0.243032 20  18EFFF5Bx       Rx   d 8 F8 21 04 00 00 00 00 00
  0.243038 20  18FFF45Bx       Rx   d 8 63 00 00 00 10 01 00 00
  0.243042 20  1CE726EAx       Rx   d 8 A8 72 04 FF 92 5E 00 00
  0.244142 20  18FFFA5Bx       Rx   d 8 06 01 84 03 9E 01 F0 FF
  0.244163 22  10FFFF47x       Rx   d 8 F6 FF 00 00 F0 00 19 19
  0.244169 20  18EFFF5Bx       Rx   d 8 64 A4 F0 FF FF FF FF FF
  0.244174 20  18FFFA31x       Rx   d 8 02 98 FF FF FF 04 FF FF
  0.244179 20  18EFFF5Bx       Rx   d 8 64 A3 FF FF FF F0 FF FF
  0.244483 26  0CF00432x       Rx   d 8 FF FF FF 82 25 FF FF FF
  0.244500 26  18FE6932x       Rx   d 8 FF FF FF FF FF FF EE 1F
  0.245030 24  1CEFFA03x       Rx   d 8 AD 09 10 27 20 4E 20 4E
  0.245030 27  0CC49823x       Rx   d 8 00 FF F0 FF FF FF FF FF
  0.245053 24  1CEFFA03x       Rx   d 8 AD 0B 20 4E 20 4E 20 4E
  0.245067 24  0CF00400x       Rx   d 8 F0 FF 87 84 25 FF F4 FF
  0.245380 20  1CEFFA03x       Rx   d 8 AD 09 10 27 20 4E 20 4E
  0.245403 20  1CEFFA03x       Rx   d 8 AD 0B 20 4E 20 4E 20 4E
  0.245496 23  10FFFF47x       Rx   d 8 F6 FF 00 00 F0 00 E5 07
  0.245847 29  09F80180x       Rx   d 8 FF FF FF 7F FF FF FF 7F
  0.245871 29  09F80280x       Rx   d 8 FF FC FF FF FF FF FF FF
  0.246222 24  18FEDF00x       Rx   d 8 82 80 25 FF FF FF FF 00
  0.246595 22  198C70F4x       Rx   d 8 64 80 00 03 00 03 00 03
  0.246619 22  198C6CF4x       Rx   d 8 64 80 00 03 00 03 00 03
  0.246622 20  18EFFFEBx       Rx   d 8 64 48 FF FF FF 0D 25 FF
  0.246647 20  18F0235Bx       Rx   d 8 00 00 00 00 00 00 00 00
  0.247048 29  09F11280x       Rx   d 8 AF EE 0B 00 00 9D 00 FD
  0.247783 20  0CF0045Bx       Rx   d 8 FF FF 87 82 25 FF F4 FF
  0.249031 23  18A7004Dx       Rx   d 8 00 00 00 00 00 00 00 00
  0.250062 25  18FFFBF0x       Rx   d 8 FB 04 92 5E FA FF FF FF
  0.250294 20  18FFFB26x       Rx   d 8 F9 01 00 00 00 FF FF FF
  0.250316 20  18EFFFEBx       Rx   d 8 F4 16 F0 FF FF FF FF FF
  0.250932 22  198C70F4x       Rx   d 8 64 81 00 03 FF FF FF FF
  0.250954 22  198C6CF4x       Rx   d 8 64 81 00 03 FF FF FF FF
  0.251536 23  10FFFF45x       Rx   d 8 F6 FF 00 00 F0 00 1B 19
  0.251903 20  18FEDF5Bx       Rx   d 8 82 80 25 FF FF FF FF FF
  0.251903 11  10FFFF45x       Rx   d 8 F6 FF 00 00 F0 00 1B 19
  0.251982 24  0C000006x       Rx   d 8 30 FF FF FF F8 FF FF FF
  0.251927 20  1CE6EA26x       Rx   d 8 A8 72 04 00 92 5E 00 00
  0.252005 24  04EF0006x       Rx   d 8 64 15 10 F0 00 40 C0 12
  0.253165 26  1CE6EA26x       Rx   d 8 A8 72 04 00 92 5E 00 00
  0.253840 23  10FFFF42x       Rx   d 8 F6 FF 00 00 F0 00 D7 07
  0.254140 11  10FFFF42x       Rx   d 8 F6 FF 00 00 F0 00 D7 07
  0.254186 22  10FFFF45x       Rx   d 8 F6 FF 00 00 F0 00 F8 05
  0.254960 24  1CEFFA03x       Rx   d 8 AD 09 10 27 20 4E 20 4E
  0.254960 27  0CC49823x       Rx   d 8 00 FF F0 FF FF FF FF FF
  0.254989 24  1CEFFA03x       Rx   d 8 AD 0B 20 4E 20 4E 20 4E
  0.255307 20  1CEFFA03x       Rx   d 8 AD 09 10 27 20 4E 20 4E
  0.255329 20  1CEFFA03x       Rx   d 8 AD 0B 20 4E 20 4E 20 4E
  0.255335 20  1C8BDAEBx       Rx   d 8 00 00 00 00 00 00 00 00
  0.256049 24  0CEFFF00x       Rx   d 8 64 06 8C 7D 59 66 1D 00
  0.256070 24  0CF00300x       Rx   d 8 FF FE 0A FF FF FF 59 FF
  0.256076 24  0CF00400x       Rx   d 8 F0 FF 87 86 25 FF F4 FF
  0.256082 24  18FEF200x       Rx   d 8 CA 00 FF FF FF FF FF FF
  0.256509 20  1C8BDAEBx       Rx   d 8 01 00 00 00 00 00 00 00
  0.256538 20  18FEF65Bx       Rx   d 8 FF FE FF FF FE FF FF FF
  0.257355 22  10FFFF41x       Rx   d 8 F6 FF 00 00 F2 00 5C 04
  0.258556 22  10FFFF44x       Rx   d 8 F6 FF 00 00 F0 00 F8 05
  0.260092 25  0CFFF3F0x       Rx   d 8 31 FF FF FF FF FF FF F8
  0.260662 22  198BF46Cx       Rx   d 8 64 90 56 00 B6 00 00 00
  0.260682 22  198BF46Cx       Rx   d 8 64 91 B4 00 FF FF FF FF
  0.260892 26  18FFFE8Cx       Rx   d 8 63 FF FF FD FF FF FF FF
  0.260913 26  18EFFF8Cx       Rx   d 8 F4 31 88 88 88 88 88 88
  0.260918 26  18EFFF4Fx       Rx   d 8 F4 19 00 FF FF FF FF FF
  0.260923 26  18FFFE8Cx       Rx   d 8 FD FB FB FB FB FF FF FF
  0.261463 24  18EF00FAx       Rx   d 8 53 E9 5B 05 04 FF FF FF
  0.261483 24  18EFFFF2x       Rx   d 8 F8 20 F2 FF FF FF FF FF
  0.261488 24  18FFFBF2x       Rx   d 8 F9 01 00 00 00 FF FF FF
  0.261493 24  18EFFFF2x       Rx   d 8 F8 0B FF FF FF FF F0 FF
  0.261932 20  0CF0035Bx       Rx   d 8 FF FF 0A FF FF FF FF FF
  0.261954 20  18EFFF5Bx       Rx   d 8 F1 2A FF FE FF FE FF FF
  0.261960 20  18FFFA5Bx       Rx   d 8 06 01 84 03 9D 01 F0 FF
  0.261963 26  1CFFF84Fx       Rx   d 8 85 00 00 FF FF FF FF FC
  0.264497 26  0CF00432x       Rx   d 8 FF FF FF 82 25 FF FF FF
  0.264980 24  1CEFFA03x       Rx   d 8 AD 09 10 27 20 4E 20 4E
  0.264980 27  0CC49823x       Rx   d 8 00 FF F0 FF FF FF FF FF
  0.265011 24  1CEFFA03x       Rx   d 8 AD 0B 20 4E 20 4E 20 4E
  0.265016 24  18EFFA00x       Rx   d 8 A5 E9 5B 05 FF FF FF FF
  0.265334 20  1CEFFA03x       Rx   d 8 AD 09 10 27 20 4E 20 4E
  0.265356 20  1CEFFA03x       Rx   d 8 AD 0B 20 4E 20 4E 20 4E
  0.265362 20  18EFFA00x       Rx   d 8 A5 E9 5B 05 FF FF FF FF
  0.265872 23  18A6004Dx       Rx   d 8 00 00 00 00 00 00 00 00
  0.266073 24  0CF00400x       Rx   d 8 F0 FF 87 80 25 FF F4 FF
  0.266092 24  1CFFF800x       Rx   d 8 73 01 00 FA F8 FF FF FF
  0.266545 20  0CFF18EBx       Rx   d 8 C0 09 00 03 40 07 03 B0
  0.266567 20  0CF61EEBx       Rx   d 8 FF 03 40 FF C3 FF F6 90
  0.266573 20  0CF61FEBx       Rx   d 8 FF 04 40 FF C3 FF F6 50
  0.266580 20  0CF620EBx       Rx   d 8 FF 01 80 FF C3 FF F6 F0
  0.266602 20  0CF0045Bx       Rx   d 8 FF FF 87 86 25 FF F4 FF
  0.267836 20  0CF621EBx       Rx   d 8 FF 02 80 FF C3 FF F6 10
  0.267861 20  18FEF25Bx       Rx   d 8 CA 00 FF FF FF FF FF FF
  0.267868 20  0CF622EBx       Rx   d 8 FF 07 40 FF 00 00 F6 A0
  0.267872 20  0CF623EBx       Rx   d 8 FF 01 40 FF 3F FF F6 B0
  0.269031 20  0CF624EBx       Rx   d 8 FF 02 40 FF 3F FF F6 50
  0.269047 20  0CF625EBx       Rx   d 8 FF 05 40 FF 3F FF F6 90
  0.269053 20  0CF626EBx       Rx   d 8 FF 06 40 FF 3F FF F6 70
  0.269057 20  0CF627EBx       Rx   d 8 FF 03 80 FF 3F FF F6 D0
  0.269484 22  10FFFF43x       Rx   d 8 F6 FF 00 00 F2 00 6B 0C
  0.270240 20  0CF628EBx       Rx   d 8 FF 04 80 FF 3F FF F6 10
  0.271321 26  18EFFF4Fx       Rx   d 8 F1 07 CC CC 00 00 00 00
  0.271343 26  18EFFF4Fx       Rx   d 8 F0 02 CC 00 30 F0 FF FF
  0.271955 20  18FFFA5Bx       Rx   d 8 06 01 84 03 9F 01 F0 FF
  0.271980 20  18EFFA26x       Rx   d 8 AD 0D 01 00 01 00 02 00
  0.271989 24  04EF0006x       Rx   d 8 64 15 11 F0 00 40 C0 12
  0.273149 20  18EFFA26x       Rx   d 8 AD 0F 01 00 01 00 01 00
  0.274352 20  18EFFF31x       Rx   d 8 F8 20 F2 FF FF FF FF FF
  0.274374 20  18FFFFEAx       Rx   d 8 16 FF 00 3B FF FF 01 00
  0.274380 20  1CEFFA03x       Rx   d 8 AD 02 88 13 88 13 88 13
  0.274592 22  10FFFF42x       Rx   d 8 F6 FF 00 00 F2 00 A8 05
  0.274903 24  1CEFFA03x       Rx   d 8 AD 02 88 13 88 13 88 13
  0.274903 27  0CC49823x       Rx   d 8 00 FF F0 FF FF FF FF FF
  0.274930 24  08EFFF03x       Rx   d 8 64 61 40 2F 1F 0F FF FF
  0.274935 24  1CEFFA03x       Rx   d 8 AD 03 00 00 00 F9 8E 00
  0.274940 24  1CEFFA03x       Rx   d 8 AD 04 81 00 72 00 3C 02
  0.275869 20  1CEFFA03x       Rx   d 8 AD 03 00 00 00 F9 8E 00
  0.275869 23  18FF024Dx       Rx   d 8 00 00 00 FF FF FF FF FF
  0.275901 23  18FFFDF3x       Rx   d 8 00 03 04 01 0F 05 0A 02
  0.275901 20  1C8BDAEBx       Rx   d 8 00 00 00 00 00 00 00 00
  0.275908 20  1CEFFA03x       Rx   d 8 AD 04 81 00 72 00 3C 02
  0.275913 20  1C8BDAEBx       Rx   d 8 01 00 00 00 00 00 00 00
  0.276101 24  18EF0600x       Rx   d 8 64 0E 50 00 FF FF FF FF
  0.276121 24  0CEFFF00x       Rx   d 8 64 06 8A 7D 59 66 1D 00
  0.276127 24  0CF00300x       Rx   d 8 FF FE 0A FF FF FF 59 FF
  0.276131 24  0CF00400x       Rx   d 8 F0 FF 87 7E 25 FF F4 FF
  0.276298 22  18FFFDF4x       Rx   d 8 00 03 02 01 0F 05 0A 02
  0.276317 22  198C70F4x       Rx   d 8 64 80 00 03 00 03 00 03
  0.276322 22  198C6CF4x       Rx   d 8 64 80 00 03 00 03 00 03
  0.277056 20  1C8BDAEBx       Rx   d 8 02 00 00 00 00 00 00 00
  0.277081 20  1C8BDAEBx       Rx   d 8 03 00 00 00 00 00 00 00
  0.277099 20  18FEF65Bx       Rx   d 8 FF FE FF FF FE FF FF FF
  0.277108 20  1CEFFA03x       Rx   d 8 AD 06 61 0C C7 0C 98 A5
  0.277146 24  18EFFF00x       Rx   d 8 F8 21 04 00 00 00 00 00
  0.277161 24  1CEFFA03x       Rx   d 8 AD 06 61 0C C7 0C 98 A5
  0.277166 24  1CEFFA03x       Rx   d 8 AD 07 01 01 19 00 D0 50
  0.277170 24  1CEFFA03x       Rx   d 8 AD 08 1D 09 91 04 10 27
  0.278262 20  1CEFFA03x       Rx   d 8 AD 07 01 01 19 00 D0 50
  0.278287 20  1CEFFA03x       Rx   d 8 AD 08 1D 09 91 04 10 27
  0.278293 20  1CEFFA03x       Rx   d 8 AD 09 10 27 20 4E 20 4E
  0.278299 20  1CEFFA03x       Rx   d 8 AD 0A 20 4E 20 4E 20 4E
  0.278344 24  1CEFFA03x       Rx   d 8 AD 09 10 27 20 4E 20 4E
  0.278358 24  1CEFFA03x       Rx   d 8 AD 0A 20 4E 20 4E 20 4E
  0.278363 24  1CEFFA03x       Rx   d 8 AD 0B 20 4E 20 4E 20 4E
  0.278368 24  1CEFFA03x       Rx   d 8 AD 0D 00 00 3C 02 00 00
  0.279265 30  18FFFF33x       Rx   d 8 51 FF 0F FF FF FF FF FF
  0.279470 20  0CFFF331x       Rx   d 8 31 8D 24 FF FF FF FF F8
  0.279490 20  1CEFFA03x       Rx   d 8 AD 0B 20 4E 20 4E 20 4E
  0.279496 20  1CEFFA03x       Rx   d 8 AD 0D 00 00 3C 02 00 00
  0.279501 20  1CEFFA03x       Rx   d 8 AD 0E 00 00 64 00 81 00
  0.279547 24  1CEFFA03x       Rx   d 8 AD 0E 00 00 64 00 81 00
  0.280739 26  0CFFF38Cx       Rx   d 8 31 8D 24 FF FF FF FF F8
  0.280761 26  18FFF88Cx       Rx   d 8 79 FF FE 17 00 84 64 00
  0.280907 22  198C70F4x       Rx   d 8 64 81 00 03 FF FF FF FF
  0.280929 22  198C6CF4x       Rx   d 8 64 81 00 03 FF FF FF FF
  0.281831 20  18EFFF5Bx       Rx   d 8 F4 16 F0 FF FF FF FF FF
  0.281852 24  18EFFFF2x       Rx   d 8 64 58 F0 F4 80 01 8D 24
  0.281859 20  18EFFF5Bx       Rx   d 8 F1 2A FF FE FF FE FF FF
  0.284586 20  18EFFF31x       Rx   d 8 64 6A 01 00 00 00 00 37
  0.284609 20  1CEFFA03x       Rx   d 8 AD 09 10 27 20 4E 20 4E
  0.284617 26  0CF00432x       Rx   d 8 FF FF FF 86 25 FF FF FF
  0.285026 24  1CEFFA03x       Rx   d 8 AD 09 10 27 20 4E 20 4E
  0.285026 27  0CC49823x       Rx   d 8 00 FF F0 FF FF FF FF FF
  0.285055 24  1CEFFA03x       Rx   d 8 AD 0B 20 4E 20 4E 20 4E
  0.285060 24  0CF00400x       Rx   d 8 F0 FF 88 80 25 FF F4 FF
  0.285625 22  198BF46Cx       Rx   d 8 64 90 56 00 58 00 00 00
  0.285716 22  198BF46Cx       Rx   d 8 64 91 56 00 FF FF FF FF
  0.285752 20  1CEFFA03x       Rx   d 8 AD 0B 20 4E 20 4E 20 4E
  0.286218 24  18F02300x       Rx   d 8 00 00 F2 FF FF 02 FF FF
  0.287380 20  0CF0045Bx       Rx   d 8 FF FF 87 7E 25 FF F4 FF
  0.289757 26  0CFF1BE5x       Rx   d 8 27 23 DF 00 20 29 00 00
  0.290096 20  18FF1B31x       Rx   d 8 27 23 DF 00 20 29 00 00
  0.290128 25  18EFFFF0x       Rx   d 8 64 6A 01 00 00 00 00 37
  0.290429 24  18FF1BF2x       Rx   d 8 27 23 DF 00 20 29 00 00
  0.290840 22  18FFFDF4x       Rx   d 8 00 02 01 0A 00 02 19 23
  0.290877 22  18FFFEF4x       Rx   d 8 37 FF FF FF FF EF FF FF
  0.290890 23  18FFFEF3x       Rx   d 8 37 FF FF FF FF EF FF FF
  0.291390 20  0CFFFE17x       Rx   d 8 48 FF FF FF FF FF FF FF
  0.292034 24  04EF0006x       Rx   d 8 64 15 12 F0 00 40 C0 12
  0.294954 24  1CEFFA03x       Rx   d 8 AD 09 10 27 20 4E 20 4E
  0.294954 27  0CC49823x       Rx   d 8 00 FF F0 FF FF FF FF FF
  0.294987 24  1CEFFA03x       Rx   d 8 AD 0B 20 4E 20 4E 20 4E
  0.294998 24  18EFFF00x       Rx   d 8 64 10 05 05 B7 18 80 BC
  0.295302 20  1CEFFA03x       Rx   d 8 AD 09 10 27 20 4E 20 4E
  0.295324 20  1CEFFA03x       Rx   d 8 AD 0B 20 4E 20 4E 20 4E
  0.295330 20  1C8BDAEBx       Rx   d 8 00 00 00 00 00 00 00 00
  0.296042 24  0CEFFF00x       Rx   d 8 64 06 8E 7D 59 66 1D 00
  0.296063 24  0CF00300x       Rx   d 8 FF FE 0A FF FF FF 59 FF
  0.296069 24  0CF00400x       Rx   d 8 F0 FF 88 86 25 FF F4 FF
  0.296244 23  18FFFDF3x       Rx   d 8 00 02 03 0A 00 02 19 23
  0.296500 20  1C8BDAEBx       Rx   d 8 01 00 00 00 00 00 00 00
  0.296522 20  18F0235Bx       Rx   d 8 00 00 00 00 00 00 00 00
  0.297146 24  18EF00FAx       Rx   d 8 53 EA 5B 05 04 FF FF FF
  0.297804 20  18FEF65Bx       Rx   d 8 FF FE FF FF FE FF FF FF
  0.300080 25  18FFFFF0x       Rx   d 8 07 FF FF FF FF FF FF FF
  0.300103 25  0CFFF3F0x       Rx   d 8 31 FF FF FF FF FF FF F8
  0.300453 24  18EFFA00x       Rx   d 8 A5 EA 5B 05 FF FF FF FF
  0.300913 20  18EFFA00x       Rx   d 8 A5 EA 5B 05 FF FF FF FF
  0.300936 20  18EFFF5Bx       Rx   d 8 F1 2A FF FE FF FE FF FF
  0.301288 25  18FFFFF0x       Rx   d 8 05 FF FF FF FF FF FF FF
  0.301310 25  18FFF4F0x       Rx   d 8 64 00 00 00 00 00 01 00
  0.301858 24  18FFFEF2x       Rx   d 8 05 FC FF FF FF FF FF FF
  0.301880 24  0CADFFF2x       Rx   d 8 FF FF 00 00 00 00 00 00
  0.301886 24  18FEE8F2x       Rx   d 8 00 00 FF FF 00 00 00 00
  0.301890 24  18FFFBF2x       Rx   d 8 FB 0F 00 00 05 05 FF 42
  0.302216 20  18EFFF5Bx       Rx   d 8 64 89 84 03 BF 00 C5 00
  0.302238 20  0CADFF26x       Rx   d 8 FF FF FC FF FF FF FF FF
  0.302244 20  18FFF426x       Rx   d 8 64 0A 51 50 00 4F 21 FF
  0.302490 25  18FFF8F0x       Rx   d 8 28 F0 FF FF FF FF FF FF
  0.302514 25  18EFFFF0x       Rx   d 8 64 48 FF FF FF FD FF FF
  0.302961 24  18EFFFF2x       Rx   d 8 F8 20 F2 FF FF FF FF FF
  0.302982 24  18FFF4F2x       Rx   d 8 64 0A 51 50 00 4F 01 00
  0.302987 24  18FFF8F2x       Rx   d 8 28 F0 FF FF FF FF FF FF
  0.302992 24  18FFFFF2x       Rx   d 8 E1 00 00 00 FF FF 00 00
  0.303662 27  0CC62398x       Rx   d 8 7D 7D 00 FF FF FF FF FF
  0.303690 25  18FFFFF0x       Rx   d 8 53 FF FF FF FF FF FF FF
  0.303716 25  18FFFFF0x       Rx   d 8 51 FF FF FF FF FF FF FF
  0.304154 24  18FFF4F2x       Rx   d 8 5E 05 00 00 00 67 00 00
  0.304171 24  1CEFFA03x       Rx   d 8 AD 09 10 27 20 4E 20 4E
  0.304382 26  0CF00432x       Rx   d 8 FF FF FF 7E 25 FF FF FF
  0.304483 30  18FEE633x       Rx   d 8 34 06 11 09 18 23 7D 76
  0.304786 25  18EFFFF0x       Rx   d 8 F1 07 CC FC FF 00 FF CC
  0.304812 25  18FFFEF0x       Rx   d 8 FD FB FB FF FF FF FF FF
  0.304902 27  0CC49823x       Rx   d 8 00 FF F0 FF FF FF FF FF
  0.305274 24  1CEFFA03x       Rx   d 8 AD 0B 20 4E 20 4E 20 4E
  0.305310 20  1CEFFA03x       Rx   d 8 AD 09 10 27 20 4E 20 4E
  0.305337 20  1CEFFA03x       Rx   d 8 AD 0B 20 4E 20 4E 20 4E
  0.305938 25  18FFFFF0x       Rx   d 8 E1 00 FF FF FF FF 00 00
  0.306206 23  18FFFDF3x       Rx   d 8 00 02 04 0A 00 02 19 26
  0.306318 24  0CF00400x       Rx   d 8 F0 FF 87 8A 25 FF F4 FF
  0.306351 22  0CEF41F4x       Rx   d 8 64 30 F0 FA 5C 04 FF FF
  0.306377 22  198C70F4x       Rx   d 8 64 80 00 03 00 03 00 03
  0.306387 22  0CEF43F4x       Rx   d 8 64 30 F0 FA 6B 0C FF FF
  0.306392 22  198C6CF4x       Rx   d 8 64 80 00 03 00 03 00 03
  0.307266 20  0CF0045Bx       Rx   d 8 FF FF 88 86 25 FF F4 FF
  0.307471 22  0CEF44F4x       Rx   d 8 64 30 F0 FA 00 00 FF FF
  0.307492 22  0CEF47F4x       Rx   d 8 64 30 F0 FA 00 00 FF FF
  0.307498 22  0CEF45F4x       Rx   d 8 64 30 F0 FA 00 00 FF FF
  0.307502 22  0CEF42F4x       Rx   d 8 64 30 F0 FA A8 05 FF FF
  0.308695 26  18FFFE19x       Rx   d 8 05 FC FF FF FF FF FF FF
  0.308716 26  18FFFE19x       Rx   d 8 0B FF FF 03 F0 FF FF FF
  0.308972 23  18EFFFF1x       Rx   d 8 64 94 00 00 FC FF FF FF
  0.309273 11  18EFFFF1x       Rx   d 8 64 94 00 00 FC FF FF FF
  0.310333 20  18EFFA26x       Rx   d 8 AD 23 D1 04 44 04 7C 01
  0.310676 22  198BF46Cx       Rx   d 8 64 90 00 00 58 00 00 00
  0.310696 22  198C70F4x       Rx   d 8 64 81 00 03 FF FF FF FF
  0.310702 22  198BF46Cx       Rx   d 8 64 91 00 00 FF FF FF FF
  0.311541 20  18EFFA26x       Rx   d 8 AD 18 6E 0A 10 07 62 FF
  0.311563 20  0CF0035Bx       Rx   d 8 FF FF 0A FF FF FF FF FF
  0.311569 20  18FFFA5Bx       Rx   d 8 06 01 84 03 9E 01 F0 FF
  0.311574 20  18FFFE26x       Rx   d 8 33 1E 58 02 82 00 FF FF
  0.311980 24  04EF0006x       Rx   d 8 64 15 13 F0 00 40 C0 12
  0.312001 24  0CFFF606x       Rx   d 8 FF FF FF FF FF 00 00 FF
  0.314556 30  18EFFF33x       Rx   d 8 F4 31 88 88 8F FF FF 88
  0.314558 20  18FFFE31x       Rx   d 8 05 FC FF FF FF FF FF FF
  0.314590 26  18EFFF32x       Rx   d 8 F2 25 00 FF FF FF FF FF
  0.314590 20  18FFFF31x       Rx   d 8 87 FF 00 FF FF FF FF FF
  0.314587 30  0CFFFE33x       Rx   d 8 8E FF FF FF FF FF FF FF
  0.314608 26  18EFFF32x       Rx   d 8 F8 A0 00 00 F0 FF FF FF
  0.314610 20  18FFFF31x       Rx   d 8 09 FF FF FF FF F3 FF FF
  0.314615 20  18FFFF31x       Rx   d 8 06 FF FF FF FF FF FF 3F
  0.314884 24  08FEF103x       Rx   d 8 FF 00 00 CF FF FF FF FF
  0.314904 24  1CEFFA03x       Rx   d 8 AD 02 88 13 88 13 88 13
  0.314910 24  08EFFF03x       Rx   d 8 64 61 41 2F 1F 0F FF FF
  0.314929 27  0CC49823x       Rx   d 8 00 FF F0 FF FF FF FF FF
  0.314960 24  1CEFFA03x       Rx   d 8 AD 03 00 00 00 F9 8E 00
  0.315748 20  18EFFF31x       Rx   d 8 64 A2 33 33 33 33 33 33
  0.315772 20  18EFFF31x       Rx   d 8 F8 20 F2 FF FF FF FF FF
  0.315778 20  18EFFF31x       Rx   d 8 64 A0 33 33 33 33 33 33
  0.315783 20  0CFF18EBx       Rx   d 8 C0 03 00 04 40 07 04 B0
  0.315788 20  18EFFF31x       Rx   d 8 64 A1 33 33 33 33 33 33
  0.316092 24  0CEFFF00x       Rx   d 8 64 06 8A 7D 58 66 1D 00
  0.316112 24  0CF00300x       Rx   d 8 FF FE 0A FF FF FF 58 FF
  0.316118 24  0CF00400x       Rx   d 8 F0 FF 87 84 25 FF F4 FF
  0.316145 24  1CEFFA03x       Rx   d 8 AD 04 81 00 72 00 3C 02
  0.316492 22  198C6CF4x       Rx   d 8 64 81 00 03 FF FF FF FF
  0.317050 20  0CF61EEBx       Rx   d 8 FF 03 40 FF C3 FF F7 60
  0.317071 20  18FFF831x       Rx   d 8 28 00 FF FF FF FF FF FF
  0.317078 20  0CF61FEBx       Rx   d 8 FF 04 40 FF C3 FF F7 A0
  0.317082 20  0CFFEC31x       Rx   d 8 FF FF FF FF FF FF FF 3F
  0.317136 24  1CEFFA03x       Rx   d 8 AD 06 61 0C C7 0C 9E A5
  0.317158 24  1CEFFA03x       Rx   d 8 AD 07 02 01 19 00 DA 50
  0.317169 24  1CEFFA03x       Rx   d 8 AD 08 1E 09 91 04 10 27
  0.317174 24  1CEFFA03x       Rx   d 8 AD 09 10 27 20 4E 20 4E
  0.318257 20  0CF620EBx       Rx   d 8 FF 01 80 FF C3 FF F7 00
  0.318283 20  18EFFF31x       Rx   d 8 F4 19 00 FF FF FF FF FF
  0.318289 20  0CF621EBx       Rx   d 8 FF 02 80 FF C3 FF F7 E0
  0.318297 20  18EFFF31x       Rx   d 8 F1 07 CC CC 00 00 00 00
  0.318338 24  1CEFFA03x       Rx   d 8 AD 0A 20 4E 20 4E 20 4E
  0.318356 24  1CEFFA03x       Rx   d 8 AD 0B 20 4E 20 4E 20 4E
  0.318361 24  1CEFFA03x       Rx   d 8 AD 0D 00 00 3C 02 00 00
  0.318369 24  1CEFFA03x       Rx   d 8 AD 0E 00 00 64 00 81 00
  0.319398 20  0CF622EBx       Rx   d 8 FF 07 40 FF 00 00 F7 50
  0.319415 20  18FEF65Bx       Rx   d 8 FF FE FF FF FE FF FF FF
  0.319421 20  0CF623EBx       Rx   d 8 FF 01 40 FF 3F FF F7 40
  0.319425 20  18EFFFEAx       Rx   d 8 64 57 F2 F8 2A FF FF FF
  0.319431 20  0CF624EBx       Rx   d 8 FF 02 40 FF 3F FF F7 A0
  0.319539 24  18FFF413x       Rx   d 8 5F A0 60 01 00 00 00 00
  0.319554 24  18FFF413x       Rx   d 8 63 00 00 00 10 01 00 00
  0.319559 24  0CACFF13x       Rx   d 8 72 7D 30 20 00 00 00 00
  0.319564 24  18FFF8C5x       Rx   d 8 9B 00 7D 00 64 80 F0 FF
  0.320772 20  18FFF831x       Rx   d 8 85 00 00 FF FF FF FF FC
  0.320795 20  0CF625EBx       Rx   d 8 FF 05 40 FF 3F FF F7 60
  0.320798 26  0CFFF38Cx       Rx   d 8 31 8D 24 FF FF FF FF F8
  0.320815 26  18FFF88Cx       Rx   d 8 79 FF FE 17 00 84 64 00
  0.320818 20  18FFFBEAx       Rx   d 8 FB 05 FF FF FF FF FF FF
  0.320830 20  0CF626EBx       Rx   d 8 FF 06 40 FF 3F FF F7 80
  0.321962 20  18FFF8EAx       Rx   d 8 9B FF FF FF FF FF FF FF
  0.321983 20  0CF627EBx       Rx   d 8 FF 03 80 FF 3F FF F7 20
  0.321990 20  18EFFF5Bx       Rx   d 8 F1 2A FF FE FF FE FF FF
  0.321995 20  0CF628EBx       Rx   d 8 FF 04 80 FF 3F FF F7 E0
  0.323165 20  18FFFA5Bx       Rx   d 8 06 01 84 03 9D 01 F0 FF
  0.323189 20  18FFFD26x       Rx   d 8 00 07 F0 FF FF FF FF FF
  0.323195 20  18FFFE31x       Rx   d 8 FD FB FB FB FB FF FF FF
  0.323200 20  1C8BDAEBx       Rx   d 8 00 00 00 00 00 00 00 00
  0.323205 20  18EFFF31x       Rx   d 8 F2 0D FF FF FF FF FF FF
  0.324481 20  1C8BDAEBx       Rx   d 8 01 00 00 00 00 00 3E E8
  0.324503 20  0CFFF331x       Rx   d 8 31 8D 24 FF FF FF FF F8
  0.324511 26  0CF00432x       Rx   d 8 FF FF FF 86 25 FF FF FF
  0.324512 20  1C8BDAEBx       Rx   d 8 02 00 00 00 00 00 00 00
  0.324528 20  1CE726EAx       Rx   d 8 A8 72 04 FF 93 5E 00 00
  0.325019 24  1CEFFA03x       Rx   d 8 AD 09 10 27 20 4E 20 4E
  0.325019 27  0CC49823x       Rx   d 8 00 FF F0 FF FF FF FF FF
  0.325045 24  1CEFFA03x       Rx   d 8 AD 0B 20 4E 20 4E 20 4E
  0.325051 24  1CEFFA03x       Rx   d 8 AD 0C 29 27 19 00 00 B7
  0.325056 24  0CF00400x       Rx   d 8 F0 FF 87 80 25 FF F4 FF
  0.325671 20  1C8BDAEBx       Rx   d 8 03 00 00 00 00 00 00 00
  0.325693 20  1CEFFA03x       Rx   d 8 AD 02 88 13 88 13 88 13
  0.325699 20  1CEFFA03x       Rx   d 8 AD 03 00 00 00 F9 8E 00
  0.325704 20  18EFFFEBx       Rx   d 8 64 95 40 04 F3 FF FF FF
  0.326312 24  18FDB300x       Rx   d 8 FF FF 9C 32 FF FF FF FF
  0.326357 23  18EFFFF3x       Rx   d 8 F8 0B FF FF FF FF F0 FF
  0.326376 23  0CEF42F3x       Rx   d 8 64 30 F0 96 D5 07 FF FF
  0.326388 23  18A74DF3x       Rx   d 8 FF FF FF FF FF FF FF FF
  0.326402 23  0CEF47F3x       Rx   d 8 64 30 F0 FA 00 00 FF FF
  0.326690 11  18EFFFF3x       Rx   d 8 F8 0B FF FF FF FF F0 FF
  0.326712 11  0CEF42F3x       Rx   d 8 64 30 F0 96 D5 07 FF FF
  0.326816 20  1CEFFA03x       Rx   d 8 AD 04 81 00 72 00 3C 02
  0.326845 20  18EFFFEBx       Rx   d 8 F8 0B 00 00 93 FF F0 00
  0.326860 20  1CEFFA03x       Rx   d 8 AD 0C 29 27 19 00 00 B7
  0.326871 20  08FEF15Bx       Rx   d 8 FF 00 00 CF FF FF FF FF
  0.326717 11  0CEF47F3x       Rx   d 8 64 30 F0 FA 00 00 FF FF
  0.327463 23  0CEF43F3x       Rx   d 8 64 30 F0 FA 00 00 FF FF
  0.327489 23  0CEF45F3x       Rx   d 8 64 30 F0 FA 00 00 FF FF
  0.327661 24  18EFFFF2x       Rx   d 8 64 58 F0 F4 80 01 8D 24
  0.327759 11  0CEF43F3x       Rx   d 8 64 30 F0 FA 00 00 FF FF
  0.327781 11  0CEF45F3x       Rx   d 8 64 30 F0 FA 00 00 FF FF
  0.327919 20  0CF0045Bx       Rx   d 8 FF FF 87 84 25 FF F4 FF
  0.330804 22  08FEF1F4x       Rx   d 8 FF 00 00 FF FF FF FF FF
  0.330805 23  08FEF1F3x       Rx   d 8 FF 00 00 FF FF FF FF FF
  0.331834 20  18FDB35Bx       Rx   d 8 FF FF 9C 32 FF FF FF FF
  0.331862 20  0CACFF5Bx       Rx   d 8 72 7D 3C 3F C0 FF FF FF
  0.331872 20  18FFFA5Bx       Rx   d 8 06 01 84 03 9F 01 F0 FF
  0.331876 20  18FFFB26x       Rx   d 8 F9 01 00 00 00 FF FF FF
  0.331988 24  04EF0006x       Rx   d 8 64 15 14 F0 00 40 C0 12
  0.332958 20  18EFFF5Bx       Rx   d 8 64 53 1D 01 C0 01 04 FF
  0.332983 20  1CE6EA26x       Rx   d 8 A8 72 04 00 93 5E 00 00
  0.333501 26  1CE6EA26x       Rx   d 8 A8 72 04 00 93 5E 00 00
  0.333527 26  08FEF132x       Rx   d 8 FF 00 00 CF FF FF FF FF
  0.334262 30  08FEF133x       Rx   d 8 FF 00 00 FF FF FF FF FF
  0.334763 20  1CE7267Fx       Rx   d 8 FF FF FF FF FF FF FF FF
  0.334789 20  1CEFFA03x       Rx   d 8 AD 09 10 27 20 4E 20 4E
  0.334798 20  1CEFFA03x       Rx   d 8 AD 0B 20 4E 20 4E 20 4E
  0.334907 27  0CC49823x       Rx   d 8 00 FF F0 FF FF FF FF FF
  0.335000 24  1CEFFA03x       Rx   d 8 AD 09 10 27 20 4E 20 4E
  0.335021 24  1CEFFA03x       Rx   d 8 AD 0B 20 4E 20 4E 20 4E
  0.335032 24  0CEFFF00x       Rx   d 8 64 06 8A 7D 59 66 1D 00
  0.335196 25  08FEF1F0x       Rx   d 8 FF 00 00 FF FF FF FF FF
  0.335476 22  198BF46Cx       Rx   d 8 64 90 56 00 00 00 00 00
  0.335495 22  198BF46Cx       Rx   d 8 64 91 B4 00 FF FF FF FF
  0.335500 22  198C70F4x       Rx   d 8 64 80 00 03 00 03 00 03
  0.336032 20  1C8BDAEBx       Rx   d 8 00 00 00 00 00 00 00 00
  0.336050 20  1C8BDAEBx       Rx   d 8 01 00 00 00 00 00 3E EE
  0.336076 24  0CF00300x       Rx   d 8 FF FE 0A FF FF FF 59 FF
  0.336092 24  0CF00400x       Rx   d 8 F0 FF 87 86 25 FF F4 FF
  0.336097 24  18F02300x       Rx   d 8 00 00 F2 FF FF 02 FF FF
  0.336102 24  18FD7C00x       Rx   d 8 F8 80 F5 F3 03 DC 03 CF
  0.336707 22  198C6CF4x       Rx   d 8 64 80 00 03 00 03 00 03
  0.337243 20  18FD7C5Bx       Rx   d 8 F8 80 F5 F3 03 DC 03 CF
  0.337267 20  18FEF65Bx       Rx   d 8 FF FE FF FF FE FF FF FF
  0.337485 24  18EFFFF2x       Rx   d 8 64 53 FF FF FF FF 04 FF
  0.339726 26  0CFF1BE5x       Rx   d 8 27 22 DF 00 30 EA 00 00
  0.340112 20  18FF1B31x       Rx   d 8 27 22 DF 00 30 EA 00 00
  0.340112 25  0CFFF3F0x       Rx   d 8 31 FF FF FF FF FF FF F8
  0.340335 24  18FF1BF2x       Rx   d 8 27 22 DF 00 30 EA 00 00
  0.340877 23  10FFFF43x       Rx   d 8 F6 FF 00 00 F1 00 00 00
  0.340933 22  198C70F4x       Rx   d 8 64 81 00 03 FF FF FF FF
  0.340955 22  198C6CF4x       Rx   d 8 64 81 00 03 FF FF FF FF
  0.341149 11  10FFFF43x       Rx   d 8 F6 FF 00 00 F1 00 00 00
  0.341448 24  18EF00FAx       Rx   d 8 53 EB 5B 05 04 FF FF FF
  0.341469 24  18EFFFF2x       Rx   d 8 F8 20 F2 FF FF FF FF FF
  0.341475 24  18FFFBF2x       Rx   d 8 F9 01 00 00 00 FF FF FF
  0.341908 20  18FFF45Bx       Rx   d 8 5F A0 60 01 00 00 00 00
  0.341931 20  0CFFEC5Bx       Rx   d 8 FF FF FF FF FF F0 FF FC
  0.341937 20  18FFFB5Bx       Rx   d 8 FB 0F 00 00 05 05 FF 42
  0.341943 20  18EFFF5Bx       Rx   d 8 64 57 2F FF FF 00 00 FF
  0.343114 20  18EFFF5Bx       Rx   d 8 F1 2A FF FE FF FE FF FF
  0.343137 20  18EFFF5Bx       Rx   d 8 F8 21 04 00 00 00 00 00
  0.343143 20  18FFF45Bx       Rx   d 8 63 00 00 00 10 01 00 00
  0.344244 22  10FFFF47x       Rx   d 8 F6 FF 00 00 F0 00 19 19
  0.344420 26  0CF00432x       Rx   d 8 FF FF FF 84 25 FF FF FF
  0.344966 24  1CEFFA03x       Rx   d 8 AD 09 10 27 20 4E 20 4E
  0.344966 27  0CC49823x       Rx   d 8 00 FF F0 FF FF FF FF FF
  0.345014 24  1CEFFA03x       Rx   d 8 AD 0B 20 4E 20 4E 20 4E
  0.345035 24  18EFFA00x       Rx   d 8 A5 EB 5B 05 FF FF FF FF
  0.345257 20  1CEFFA03x       Rx   d 8 AD 09 10 27 20 4E 20 4E
  0.345272 20  1CEFFA03x       Rx   d 8 AD 0B 20 4E 20 4E 20 4E
  0.345278 20  18EFFA00x       Rx   d 8 A5 EB 5B 05 FF FF FF FF
  0.345283 20  18EFFFEBx       Rx   d 8 64 48 FF FF FF 0D 26 FF
  0.345490 23  10FFFF47x       Rx   d 8 F6 FF 00 00 F0 00 E5 07
  0.345789 29  09F11280x       Rx   d 8 B0 EE 0B 00 00 9D 00 FD
  0.346050 24  0CF00400x       Rx   d 8 F0 FF 87 88 25 FF F4 FF
  0.346069 24  18FEDF00x       Rx   d 8 82 80 25 FF FF FF FF 00
  0.346607 20  18EFFFEBx       Rx   d 8 F2 25 00 FF FF FF FF FF
  0.346622 20  18F0235Bx       Rx   d 8 00 00 00 00 00 00 00 00
  0.347811 20  0CF0045Bx       Rx   d 8 FF FF 87 86 25 FF F4 FF
  0.349093 23  18A7004Dx       Rx   d 8 00 00 00 00 00 00 00 00
  0.351501 23  10FFFF45x       Rx   d 8 F6 FF 00 00 F0 00 1B 19
  0.351776 11  10FFFF45x       Rx   d 8 F6 FF 00 00 F0 00 1B 19
  0.351972 24  04EF0006x       Rx   d 8 64 15 15 F0 00 40 C0 12
  0.353804 23  10FFFF42x       Rx   d 8 F6 FF 00 00 F0 00 D7 07
  0.354077 11  10FFFF42x       Rx   d 8 F6 FF 00 00 F0 00 D7 07
  0.354123 22  10FFFF45x       Rx   d 8 F6 FF 00 00 F0 00 F8 05
  0.354337 20  18EFFF31x       Rx   d 8 F8 20 F2 FF FF FF FF FF
  0.354358 20  1CEFFA03x       Rx   d 8 AD 02 88 13 88 13 88 13
  0.354998 24  1CEFFA03x       Rx   d 8 AD 02 88 13 88 13 88 13
  0.354998 27  0CC49823x       Rx   d 8 00 FF F0 FF FF FF FF FF
  0.355024 24  08EFFF03x       Rx   d 8 64 61 41 2F 1F 0F FF FF
  0.355029 24  1CEFFA03x       Rx   d 8 AD 03 00 00 00 F9 8B 00
  0.355034 24  1CEFFA03x       Rx   d 8 AD 04 81 00 72 00 3C 02
  0.355830 20  1CEFFA03x       Rx   d 8 AD 03 00 00 00 F9 8B 00
  0.355846 20  1C8BDAEBx       Rx   d 8 00 00 00 00 00 00 00 00
  0.355851 20  18EFFFEBx       Rx   d 8 F4 16 F0 FF FF FF FF FF
  0.355856 20  1C8BDAEBx       Rx   d 8 01 00 00 00 00 00 0A 01
  0.356086 24  18EFFF00x       Rx   d 8 64 23 FE FA 00 FE 00 46
  0.356116 24  0CEFFF00x       Rx   d 8 64 06 89 7D 58 66 1D 00
  0.356122 24  0CF00300x       Rx   d 8 FF FE 0A FF FF FF 58 FF
  0.356127 24  0CF00400x       Rx   d 8 F0 FF 87 88 25 FF F4 FF
  0.357043 20  1CEFFA03x       Rx   d 8 AD 04 81 00 72 00 3C 02
  0.357063 20  18FEF65Bx       Rx   d 8 FF FE FF FF FE FF FF FF
  0.357076 20  1CEFFA03x       Rx   d 8 AD 06 61 0C C7 0C 9B A5
  0.357126 24  18FEF200x       Rx   d 8 C9 00 FF FF FF FF FF FF
  0.357142 24  1CEFFA03x       Rx   d 8 AD 06 61 0C C7 0C 9B A5
  0.357146 24  1CEFFA03x       Rx   d 8 AD 07 02 01 19 00 D0 50
  0.357150 24  1CEFFA03x       Rx   d 8 AD 08 1D 09 91 04 10 27
  0.357257 22  10FFFF41x       Rx   d 8 F6 FF 00 00 F2 00 5C 04
  0.358245 20  1CEFFA03x       Rx   d 8 AD 07 02 01 19 00 D0 50
  0.358268 20  1CEFFA03x       Rx   d 8 AD 08 1D 09 91 04 10 27
  0.358274 20  1CEFFA03x       Rx   d 8 AD 09 10 27 20 4E 20 4E
